! Created Thu Feb 25 18:17:35 2016
# hz S ma R 50
! 2 Port Network Data from SP1.SP block
! freq  magS11  angS11  magS21  angS21  magS12  angS12  magS22  angS22  
!     
         100000000     0.00766523532        -107.131759        0.997037262        -1.02278372        0.997037262        -1.02278372      0.00766523532        -107.131759
         200000000      0.0133043591        -112.298902        0.994455076        -1.91605284        0.994455076        -1.91605284       0.0133043591        -112.298902
         300000000      0.0181718706        -115.853515         0.99187523        -2.75987047         0.99187523        -2.75987047       0.0181718706        -115.853515
         400000000      0.0225452186        -118.794321        0.989302901        -3.57139102        0.989302901        -3.57139102       0.0225452186        -118.794321
         500000000      0.0265566059        -121.397868        0.986741087        -4.35881662        0.986741087        -4.35881662       0.0265566059        -121.397868
         600000000      0.0302839869        -123.782666        0.984191734        -5.12701149        0.984191734        -5.12701149       0.0302839869        -123.782666
         700000000      0.0337789154        -126.011377        0.981656178        -5.87921244        0.981656178        -5.87921244       0.0337789154        -126.011377
         800000000      0.0370780643        -128.121584        0.979135358        -6.61773663        0.979135358        -6.61773663       0.0370780643        -128.121584
         900000000      0.0402088771        -130.137807        0.976629938        -7.34432935        0.976629938        -7.34432935       0.0402088771        -130.137807
            1e+009      0.0431926731        -132.077038        0.974140382        -8.06035534        0.974140382        -8.06035534       0.0431926731        -132.077038
          1.1e+009      0.0460464958        -133.951601        0.971667003        -8.76691298        0.971667003        -8.76691298       0.0460464958        -133.951601
          1.2e+009      0.0487842829        -135.770752        0.969209995        -9.46490668        0.969209995        -9.46490668       0.0487842829        -135.770752
          1.3e+009      0.0514176437        -137.541643        0.966769463        -10.1550951        0.966769463        -10.1550951       0.0514176437        -137.541643
          1.4e+009      0.0539563955        -139.269928        0.964345432        -10.8381245        0.964345432        -10.8381245       0.0539563955        -139.269928
          1.5e+009      0.0564089461        -140.960165        0.961937869        -11.5145525        0.961937869        -11.5145525       0.0564089461        -140.960165
          1.6e+009      0.0587825737        -142.616085        0.959546688        -12.1848655        0.959546688        -12.1848655       0.0587825737        -142.616085
          1.7e+009      0.0610836368        -144.240788        0.957171762         -12.849492        0.957171762         -12.849492       0.0610836368        -144.240788
          1.8e+009      0.0633177342        -145.836879        0.954812928        -13.5088124        0.954812928        -13.5088124       0.0633177342        -145.836879
          1.9e+009        0.06548983        -147.406569        0.952469993        -14.1631668        0.952469993        -14.1631668         0.06548983        -147.406569
            2e+009       0.067604352        -148.951754        0.950142739        -14.8128616        0.950142739        -14.8128616        0.067604352        -148.951754
          2.1e+009        0.06966527        -150.474072        0.947830925        -15.4581737        0.947830925        -15.4581737         0.06966527        -150.474072
          2.2e+009        0.07167616        -151.974949        0.945534292        -16.0993552        0.945534292        -16.0993552         0.07167616        -151.974949
          2.3e+009      0.0736402562        -153.455635        0.943252567        -16.7366364        0.943252567        -16.7366364       0.0736402562        -153.455635
          2.4e+009      0.0755604943        -154.917229         0.94098546        -17.3702286         0.94098546        -17.3702286       0.0755604943        -154.917229
          2.5e+009      0.0774395475        -156.360709        0.938732674        -18.0003262        0.938732674        -18.0003262       0.0774395475        -156.360709
          2.6e+009      0.0792798567        -157.786943        0.936493898        -18.6271087        0.936493898        -18.6271087       0.0792798567        -157.786943
          2.7e+009      0.0810836564        -159.196709        0.934268817        -19.2507427        0.934268817        -19.2507427       0.0810836564        -159.196709
          2.8e+009      0.0828529965        -160.590707        0.932057106        -19.8713825        0.932057106        -19.8713825       0.0828529965        -160.590707
          2.9e+009      0.0845897613        -161.969565        0.929858437        -20.4891722        0.929858437        -20.4891722       0.0845897613        -161.969565
            3e+009      0.0862956856        -163.333857        0.927672475        -21.1042458        0.927672475        -21.1042458       0.0862956856        -163.333857
          3.1e+009      0.0879723693        -164.684101        0.925498883        -21.7167291        0.925498883        -21.7167291       0.0879723693        -164.684101
          3.2e+009      0.0896212893        -166.020771        0.923337322        -22.3267395        0.923337322        -22.3267395       0.0896212893        -166.020771
          3.3e+009      0.0912438107        -167.344299        0.921187448        -22.9343874        0.921187448        -22.9343874       0.0912438107        -167.344299
          3.4e+009      0.0928411964        -168.655084         0.91904892        -23.5397765         0.91904892        -23.5397765       0.0928411964        -168.655084
          3.5e+009      0.0944146154        -169.953491        0.916921392        -24.1430043        0.916921392        -24.1430043       0.0944146154        -169.953491
          3.6e+009      0.0959651507        -171.239858        0.914804521        -24.7441629        0.914804521        -24.7441629       0.0959651507        -171.239858
          3.7e+009       0.097493806        -172.514497        0.912697962        -25.3433388        0.912697962        -25.3433388        0.097493806        -172.514497
          3.8e+009      0.0990015117        -173.777699        0.910601374         -25.940614        0.910601374         -25.940614       0.0990015117        -173.777699
          3.9e+009        0.10048913        -175.029733        0.908514412        -26.5360659        0.908514412        -26.5360659         0.10048913        -175.029733
            4e+009       0.101957462        -176.270851        0.906436739        -27.1297677        0.906436739        -27.1297677        0.101957462        -176.270851
          4.1e+009       0.103407247        -177.501288        0.904368014        -27.7217886        0.904368014        -27.7217886        0.103407247        -177.501288
          4.2e+009       0.104839175        -178.721264        0.902307902        -28.3121945        0.902307902        -28.3121945        0.104839175        -178.721264
          4.3e+009        0.10625388        -179.930987         0.90025607        -28.9010475         0.90025607        -28.9010475         0.10625388        -179.930987
          4.4e+009       0.107651953          178.86935        0.898212186        -29.4884066        0.898212186        -29.4884066        0.107651953          178.86935
          4.5e+009       0.109033939         177.679562        0.896175923        -30.0743278        0.896175923        -30.0743278        0.109033939         177.679562
          4.6e+009       0.110400344         176.499476        0.894146956        -30.6588644        0.894146956        -30.6588644        0.110400344         176.499476
          4.7e+009       0.111751632         175.328928        0.892124964        -31.2420667        0.892124964        -31.2420667        0.111751632         175.328928
          4.8e+009       0.113088235         174.167762        0.890109631        -31.8239828        0.890109631        -31.8239828        0.113088235         174.167762
          4.9e+009       0.114410548          173.01583        0.888100642        -32.4046581        0.888100642        -32.4046581        0.114410548          173.01583
            5e+009       0.115718936          171.87299        0.886097689        -32.9841358        0.886097689        -32.9841358        0.115718936          171.87299
          5.1e+009       0.117013733         170.739109        0.884100466        -33.5624572        0.884100466        -33.5624572        0.117013733         170.739109
          5.2e+009       0.118295248         169.614058        0.882108672        -34.1396613        0.882108672        -34.1396613        0.118295248         169.614058
          5.3e+009        0.11956376         168.497713        0.880122011         -34.715785        0.880122011         -34.715785         0.11956376         168.497713
          5.4e+009       0.120819527         167.389957        0.878140192        -35.2908638        0.878140192        -35.2908638        0.120819527         167.389957
          5.5e+009        0.12206278         166.290678        0.876162927         -35.864931        0.876162927         -35.864931         0.12206278         166.290678
          5.6e+009       0.123293732         165.199765        0.874189934        -36.4380184        0.874189934        -36.4380184        0.123293732         165.199765
          5.7e+009       0.124512574         164.117115        0.872220937        -37.0101563        0.872220937        -37.0101563        0.124512574         164.117115
          5.8e+009       0.125719477         163.042627        0.870255662        -37.5813732        0.870255662        -37.5813732        0.125719477         163.042627
          5.9e+009       0.126914595         161.976203        0.868293843        -38.1516963        0.868293843        -38.1516963        0.126914595         161.976203
            6e+009       0.128098064          160.91775        0.866335218        -38.7211513        0.866335218        -38.7211513        0.128098064          160.91775
          6.1e+009       0.129270007         159.867177        0.864379531        -39.2897628        0.864379531        -39.2897628        0.129270007         159.867177
          6.2e+009       0.130430528         158.824395         0.86242653        -39.8575537         0.86242653        -39.8575537        0.130430528         158.824395
          6.3e+009        0.13157972          157.78932         0.86047597        -40.4245459         0.86047597        -40.4245459         0.13157972          157.78932
          6.4e+009       0.132717661         156.761869        0.858527611        -40.9907602        0.858527611        -40.9907602        0.132717661         156.761869
          6.5e+009       0.133844419         155.741962        0.856581217         -41.556216        0.856581217         -41.556216        0.133844419         155.741962
          6.6e+009       0.134960047         154.729521        0.854636559        -42.1209319        0.854636559        -42.1209319        0.134960047         154.729521
          6.7e+009        0.13606459         153.724471        0.852693415        -42.6849253        0.852693415        -42.6849253         0.13606459         153.724471
          6.8e+009       0.137158082         152.726737        0.850751566        -43.2482124        0.850751566        -43.2482124        0.137158082         152.726737
          6.9e+009       0.138240548         151.736249          0.8488108        -43.8108089          0.8488108        -43.8108089        0.138240548         151.736249
            7e+009       0.139312004         150.752936        0.846870911         -44.372729        0.846870911         -44.372729        0.139312004         150.752936
          7.1e+009       0.140372457         149.776732        0.844931697        -44.9339866        0.844931697        -44.9339866        0.140372457         149.776732
          7.2e+009       0.141421907         148.807569        0.842992966        -45.4945942        0.842992966        -45.4945942        0.141421907         148.807569
          7.3e+009       0.142460349         147.845383        0.841054526        -46.0545638        0.841054526        -46.0545638        0.142460349         147.845383
          7.4e+009       0.143487768         146.890112        0.839116195        -46.6139065        0.839116195        -46.6139065        0.143487768         146.890112
          7.5e+009       0.144504145         145.941694        0.837177796        -47.1726326        0.837177796        -47.1726326        0.144504145         145.941694
          7.6e+009       0.145509455         145.000069        0.835239157        -47.7307518        0.835239157        -47.7307518        0.145509455         145.000069
          7.7e+009       0.146503668         144.065179        0.833300113        -48.2882729        0.833300113        -48.2882729        0.146503668         144.065179
          7.8e+009       0.147486751         143.136967        0.831360503        -48.8452042        0.831360503        -48.8452042        0.147486751         143.136967
          7.9e+009       0.148458664         142.215377        0.829420173        -49.4015532        0.829420173        -49.4015532        0.148458664         142.215377
            8e+009       0.149419365         141.300354        0.827478976        -49.9573268        0.827478976        -49.9573268        0.149419365         141.300354
          8.1e+009       0.150368808         140.391847        0.825536769        -50.5125314        0.825536769        -50.5125314        0.150368808         140.391847
          8.2e+009       0.151306945         139.489802        0.823593415        -51.0671727        0.823593415        -51.0671727        0.151306945         139.489802
          8.3e+009       0.152233723         138.594169        0.821648783        -51.6212559        0.821648783        -51.6212559        0.152233723         138.594169
          8.4e+009       0.153149089         137.704898        0.819702749        -52.1747856        0.819702749        -52.1747856        0.153149089         137.704898
          8.5e+009       0.154052987         136.821942        0.817755194         -52.727766        0.817755194         -52.727766        0.154052987         136.821942
          8.6e+009        0.15494536         135.945253        0.815806002        -53.2802006        0.815806002        -53.2802006         0.15494536         135.945253
          8.7e+009       0.155826148         135.074784        0.813855068        -53.8320927        0.813855068        -53.8320927        0.155826148         135.074784
          8.8e+009       0.156695291         134.210492        0.811902288         -54.383445        0.811902288         -54.383445        0.156695291         134.210492
          8.9e+009       0.157552728          133.35233        0.809947565        -54.9342597        0.809947565        -54.9342597        0.157552728          133.35233
            9e+009       0.158398397         132.500258        0.807990809        -55.4845386        0.807990809        -55.4845386        0.158398397         132.500258
          9.1e+009       0.159232237         131.654232        0.806031934        -56.0342833        0.806031934        -56.0342833        0.159232237         131.654232
          9.2e+009       0.160054185         130.814211         0.80407086        -56.5834948         0.80407086        -56.5834948        0.160054185         130.814211
          9.3e+009       0.160864179         129.980156        0.802107512        -57.1321737        0.802107512        -57.1321737        0.160864179         129.980156
          9.4e+009       0.161662157         129.152027        0.800141821        -57.6803205        0.800141821        -57.6803205        0.161662157         129.152027
          9.5e+009       0.162448058         128.329787        0.798173722        -58.2279352        0.798173722        -58.2279352        0.162448058         128.329787
          9.6e+009       0.163221821         127.513397        0.796203157        -58.7750175        0.796203157        -58.7750175        0.163221821         127.513397
          9.7e+009       0.163983386         126.702821        0.794230073        -59.3215667        0.794230073        -59.3215667        0.163983386         126.702821
          9.8e+009       0.164732695         125.898024        0.792254421        -59.8675821        0.792254421        -59.8675821        0.164732695         125.898024
          9.9e+009        0.16546969         125.098972        0.790276157        -60.4130624        0.790276157        -60.4130624         0.16546969         125.098972
            1e+010       0.166194315          124.30563        0.788295243        -60.9580063        0.788295243        -60.9580063        0.166194315          124.30563
