!Keysight Technologies,N5242A,MY53222596,A.10.47.06
!Date: Thursday, November 09, 2017 12:01:29
!Correction: S11(Full 2 Port(1,3)) 
!S1P File: Measurement: S11:
# Hz S  dB   R 50
10000000 -82.099152 20.107283
20000000 -93.816383 -168.61273
30000000 -90.389511 -171.60713
40000000 -89.209717 173.82744
50000000 -99.731804 116.16154
60000000 -91.91684 -128.2068
70000000 -89.371338 169.21489
80000000 -92.202484 164.87813
90000000 -93.150223 141.91469
100000000 -93.998581 179.23038
110000000 -92.479279 -177.69667
120000000 -95.087181 172.09003
130000000 -95.338539 -172.02396
140000000 -91.613792 173.13969
150000000 -96.470734 158.72884
160000000 -90.429047 162.42111
170000000 -90.644798 -168.51353
180000000 -94.017334 -179.36786
190000000 -93.182549 173.27919
200000000 -92.098206 -168.88049
210000000 -91.870247 155.2888
220000000 -92.894905 148.62474
230000000 -88.529755 170.09209
240000000 -92.936966 174.82066
250000000 -97.491264 -176.55721
260000000 -94.518181 -173.94167
270000000 -89.39576 -161.8398
280000000 -95.097359 157.72266
290000000 -96.649101 -179.72394
300000000 -89.180557 164.07484
310000000 -93.978775 -179.41292
320000000 -94.226074 150.53203
330000000 -93.00164 174.57339
340000000 -91.469704 -178.88046
350000000 -94.114304 -171.92679
360000000 -92.668121 -179.91968
370000000 -90.35466 169.57072
380000000 -93.671875 -172.86394
390000000 -91.326515 172.66232
400000000 -98.754814 139.93829
410000000 -91.341339 173.27658
420000000 -94.549866 178.67796
430000000 -91.905708 143.67508
440000000 -96.850151 164.69202
450000000 -92.745361 123.03408
460000000 -92.1511 -164.89197
470000000 -94.49913 175.56926
480000000 -94.289879 178.8054
490000000 -98.292809 -173.45068
500000000 -92.805336 144.37169
510000000 -95.050392 154.69331
520000000 -93.384148 -158.22205
530000000 -96.547897 159.9263
540000000 -96.925278 150.02406
550000000 -92.124535 152.60672
560000000 -95.40155 -161.31992
570000000 -93.499489 149.02821
580000000 -98.507729 174.14313
590000000 -100.49296 166.26201
600000000 -95.56633 168.9057
610000000 -96.665894 132.68948
620000000 -95.853851 -176.27197
630000000 -93.661652 173.91148
640000000 -101.13273 148.11635
650000000 -95.964363 138.1255
660000000 -95.461281 162.37596
670000000 -95.730286 148.55717
680000000 -96.686394 172.89235
690000000 -96.249702 147.45607
700000000 -97.011475 168.80721
710000000 -100.95415 154.71692
720000000 -95.528152 156.37032
730000000 -95.317635 127.93442
740000000 -93.828712 140.24823
750000000 -94.895195 167.19237
760000000 -95.444748 154.80476
770000000 -96.49366 140.89001
780000000 -93.673828 143.46271
790000000 -96.263443 134.91682
800000000 -99.741432 128.19177
810000000 -94.546135 150.77115
820000000 -97.143547 150.13538
830000000 -99.642342 132.02562
840000000 -94.21096 141.11011
850000000 -94.764771 146.74658
860000000 -98.555298 135.32582
870000000 -99.65612 117.92918
880000000 -98.675972 145.34303
890000000 -98.495697 126.053
900000000 -101.86316 134.84091
910000000 -96.609642 136.88628
920000000 -99.231308 130.50085
930000000 -98.897041 139.65109
940000000 -98.189575 161.76764
950000000 -95.874397 134.3053
960000000 -94.712517 144.65465
970000000 -96.918793 143.88574
980000000 -98.80909 129.01097
990000000 -94.914825 138.14143
1000000000 -95.204903 154.77299
1010000000 -93.687675 116.90097
1020000000 -93.886902 127.03108
1030000000 -94.870949 129.95535
1040000000 -100.57893 145.11404
1050000000 -99.809624 154.76189
1060000000 -96.938599 131.16289
1070000000 -96.46637 127.34186
1080000000 -97.919403 121.25101
1090000000 -96.293533 137.67159
1100000000 -96.156891 107.48081
1110000000 -94.979469 118.50456
1120000000 -96.419823 143.494
1130000000 -96.258598 130.16446
1140000000 -93.20356 131.53017
1150000000 -95.346649 123.32273
1160000000 -98.88372 123.27428
1170000000 -93.490242 111.21475
1180000000 -95.19043 137.65341
1190000000 -93.236969 125.7373
1200000000 -96.019951 98.579987
1210000000 -94.571053 118.91477
1220000000 -95.846313 86.516426
1230000000 -93.354317 116.58091
1240000000 -94.640175 106.7077
1250000000 -95.310791 99.446281
1260000000 -93.758133 132.08014
1270000000 -93.212013 119.27782
1280000000 -93.628365 146.70197
1290000000 -93.02227 113.88043
1300000000 -95.138908 124.09782
1310000000 -93.58091 132.20811
1320000000 -94.967628 108.44215
1330000000 -94.121277 120.93353
1340000000 -93.377136 101.60746
1350000000 -93.737892 117.81575
1360000000 -90.49382 122.30898
1370000000 -94.055084 117.14522
1380000000 -91.769585 102.38095
1390000000 -93.852463 111.31027
1400000000 -92.486473 113.00098
1410000000 -92.315727 117.86614
1420000000 -91.682434 131.18713
1430000000 -91.507965 105.9982
1440000000 -95.103462 133.2368
1450000000 -92.310219 115.09763
1460000000 -94.117126 123.39367
1470000000 -90.862076 114.72655
1480000000 -91.45089 109.65809
1490000000 -90.748596 116.19489
1500000000 -93.870773 113.4398
1510000000 -92.143562 110.05626
1520000000 -90.364655 111.06322
1530000000 -89.45417 113.00419
1540000000 -91.038239 106.80624
1550000000 -90.360558 115.31542
1560000000 -92.109833 123.81417
1570000000 -88.993927 121.38741
1580000000 -89.592094 100.80666
1590000000 -89.794296 112.38168
1600000000 -90.480858 132.25037
1610000000 -91.441803 113.11257
1620000000 -91.207214 112.76594
1630000000 -90.21579 122.73271
1640000000 -89.811615 110.52462
1650000000 -91.995697 97.776825
1660000000 -89.778648 120.55772
1670000000 -91.489403 118.98468
1680000000 -89.80674 123.12972
1690000000 -88.94062 126.63492
1700000000 -88.900848 108.39552
1710000000 -89.928177 115.01968
1720000000 -88.690605 125.51771
1730000000 -88.212456 115.40189
1740000000 -88.890755 114.73964
1750000000 -91.671783 114.74755
1760000000 -90.331047 103.02232
1770000000 -88.40464 132.15297
1780000000 -90.329552 120.22665
1790000000 -89.773087 112.03323
1800000000 -89.603241 114.76591
1810000000 -88.788467 109.38602
1820000000 -88.217926 122.92383
1830000000 -89.553009 123.79423
1840000000 -88.15696 128.52129
1850000000 -87.795845 124.87827
1860000000 -88.237823 106.84181
1870000000 -89.529579 111.56815
1880000000 -92.041206 110.52013
1890000000 -88.451653 112.02922
1900000000 -87.321838 117.59856
1910000000 -87.660812 112.44878
1920000000 -87.314667 118.96888
1930000000 -87.150475 123.08977
1940000000 -88.026787 118.79476
1950000000 -87.085075 115.58182
1960000000 -88.495811 121.84704
1970000000 -88.245918 120.13292
1980000000 -88.036148 105.18918
1990000000 -87.248314 120.41367
2000000000 -85.58812 121.22626
2010000000 -89.052429 126.27074
2020000000 -87.757133 118.3468
2030000000 -88.240837 122.99186
2040000000 -87.642754 127.63413
2050000000 -87.160637 124.01218
2060000000 -87.082092 122.72907
2070000000 -86.886978 129.04294
2080000000 -87.013046 125.12879
2090000000 -86.395157 126.77541
2100000000 -87.195831 117.00175
2110000000 -85.975311 118.54527
2120000000 -86.529449 116.32973
2130000000 -87.513313 117.61849
2140000000 -88.603531 127.37186
2150000000 -86.299706 119.03564
2160000000 -87.026192 132.09637
2170000000 -87.030922 119.8211
2180000000 -86.59536 117.90965
2190000000 -86.250519 121.5158
2200000000 -87.5895 129.36554
2210000000 -85.023033 128.93251
2220000000 -87.217941 117.35869
2230000000 -86.058578 115.92035
2240000000 -87.377342 122.88084
2250000000 -85.577904 122.35513
2260000000 -85.48378 129.15005
2270000000 -85.617577 121.44803
2280000000 -88.446739 122.41074
2290000000 -85.443932 133.18237
2300000000 -86.305313 130.9001
2310000000 -85.886986 120.34203
2320000000 -85.892609 134.3037
2330000000 -86.661674 124.44083
2340000000 -85.622368 121.95486
2350000000 -85.799492 128.85352
2360000000 -85.686012 121.23528
2370000000 -86.899689 126.22572
2380000000 -85.341843 130.88751
2390000000 -86.006882 119.98421
2400000000 -85.776161 129.41341
2410000000 -86.060448 115.76721
2420000000 -86.725899 134.14636
2430000000 -85.994446 127.91121
2440000000 -85.464417 127.06602
2450000000 -83.909912 127.2102
2460000000 -86.381042 131.80234
2470000000 -84.612556 123.27661
2480000000 -86.331238 121.06226
2490000000 -85.266914 131.04489
2500000000 -85.939896 125.46309
2510000000 -85.61306 136.06456
2520000000 -86.014168 124.79919
2530000000 -84.417847 122.43803
2540000000 -85.783852 123.90552
2550000000 -85.984474 130.68912
2560000000 -85.406769 132.44421
2570000000 -84.678322 123.72299
2580000000 -86.26725 134.63585
2590000000 -85.597137 130.34834
2600000000 -84.833603 124.86868
2610000000 -85.571297 125.10138
2620000000 -84.130852 127.08322
2630000000 -84.955315 131.42938
2640000000 -85.033676 135.1786
2650000000 -85.61631 136.99124
2660000000 -85.332954 127.87022
2670000000 -85.885185 129.05443
2680000000 -85.507896 133.53255
2690000000 -85.079582 129.65355
2700000000 -84.665497 125.33978
2710000000 -84.315948 121.46441
2720000000 -83.745987 130.85641
2730000000 -84.312515 124.00733
2740000000 -84.932549 125.13752
2750000000 -84.937187 131.79179
2760000000 -84.31678 129.43709
2770000000 -85.175079 130.44899
2780000000 -85.642662 135.18536
2790000000 -84.811104 121.00477
2800000000 -84.40123 119.67271
2810000000 -85.750374 124.03899
2820000000 -83.744423 124.54848
2830000000 -85.379051 122.38969
2840000000 -84.606987 123.23519
2850000000 -85.289055 129.18376
2860000000 -85.572876 132.1541
2870000000 -85.804909 140.64735
2880000000 -85.023384 122.96004
2890000000 -85.095505 126.31412
2900000000 -85.286438 128.68457
2910000000 -84.632896 122.14117
2920000000 -85.061218 132.87759
2930000000 -85.038612 129.07794
2940000000 -85.8965 124.53542
2950000000 -84.370903 128.42093
2960000000 -85.064598 123.57642
2970000000 -84.245811 124.01523
2980000000 -84.6521 130.66949
2990000000 -85.074677 130.00491
3000000000 -84.245049 126.40971
3010000000 -84.836998 123.29771
3020000000 -84.329323 128.57933
3030000000 -85.551987 124.1621
3040000000 -85.253639 126.51901
3050000000 -85.633873 127.38811
3060000000 -83.724228 125.69754
3070000000 -84.43705 126.53345
3080000000 -84.944771 124.94466
3090000000 -84.936005 127.49377
3100000000 -83.548874 126.7767
3110000000 -85.392845 128.19379
3120000000 -84.068703 125.67564
3130000000 -83.64286 127.82298
3140000000 -84.336655 123.23447
3150000000 -84.97316 128.35571
3160000000 -84.553047 128.99957
3170000000 -84.041428 122.94886
3180000000 -84.542976 127.00715
3190000000 -83.862419 123.45347
3200000000 -83.842628 119.81467
3210000000 -84.211266 127.6352
3220000000 -84.283981 118.52355
3230000000 -83.4599 129.22623
3240000000 -83.73777 123.43003
3250000000 -84.587944 124.32796
3260000000 -84.156105 122.02673
3270000000 -83.821503 131.43651
3280000000 -84.703667 121.8793
3290000000 -84.593796 122.92507
3300000000 -83.174461 122.57721
3310000000 -84.826859 124.38933
3320000000 -83.180443 122.33755
3330000000 -83.770134 125.74743
3340000000 -83.838913 124.97263
3350000000 -84.167664 124.27876
3360000000 -84.497955 116.68195
3370000000 -83.104164 121.92003
3380000000 -83.333145 120.5276
3390000000 -83.553108 123.56509
3400000000 -83.356888 123.18777
3410000000 -83.708344 122.45
3420000000 -83.939217 122.6825
3430000000 -83.629402 120.03701
3440000000 -83.823463 120.00086
3450000000 -83.584839 124.95247
3460000000 -84.233124 123.02592
3470000000 -83.660645 124.78843
3480000000 -83.830025 122.37389
3490000000 -83.168648 122.65884
3500000000 -84.534203 121.94975
3510000000 -83.478355 118.56717
3520000000 -84.457268 120.23158
3530000000 -84.471481 122.07839
3540000000 -83.881264 121.0985
3550000000 -82.402603 119.30171
3560000000 -82.320107 121.23882
3570000000 -83.122917 119.69661
3580000000 -82.743034 117.22785
3590000000 -83.287827 115.02265
3600000000 -83.096329 120.01167
3610000000 -82.784203 115.23016
3620000000 -81.944763 114.33417
3630000000 -83.300453 116.71356
3640000000 -83.111519 122.59016
3650000000 -83.130676 118.29913
3660000000 -82.790581 117.05882
3670000000 -83.402336 111.94433
3680000000 -82.744514 120.45793
3690000000 -83.193665 115.78776
3700000000 -82.61013 116.30231
3710000000 -83.157486 116.64418
3720000000 -81.410423 117.2113
3730000000 -82.937546 112.57944
3740000000 -82.110474 116.97468
3750000000 -82.161926 118.43952
3760000000 -82.293137 118.08065
3770000000 -81.700211 114.66274
3780000000 -82.380501 111.40109
3790000000 -83.026596 116.93591
3800000000 -82.841309 118.40733
3810000000 -81.73465 117.99876
3820000000 -82.169533 117.56571
3830000000 -81.327896 124.06821
3840000000 -81.932129 115.44138
3850000000 -82.540848 113.0118
3860000000 -81.674095 113.6469
3870000000 -81.169022 114.01799
3880000000 -82.259193 112.49956
3890000000 -81.609879 112.82845
3900000000 -81.603661 111.83208
3910000000 -81.150055 117.64707
3920000000 -81.990997 113.91988
3930000000 -82.12484 113.15659
3940000000 -82.535904 111.00016
3950000000 -82.436745 112.12034
3960000000 -81.384674 117.09082
3970000000 -81.646271 112.48931
3980000000 -81.856583 112.22624
3990000000 -81.217361 112.00419
4000000000 -81.051315 107.45878
4010000000 -81.212418 109.70097
4020000000 -81.690147 112.25693
4030000000 -81.921295 110.15926
4040000000 -81.562515 115.24651
4050000000 -80.922188 114.04955
4060000000 -81.589111 115.68417
4070000000 -80.409981 110.35967
4080000000 -82.12751 113.62334
4090000000 -81.274033 110.3335
4100000000 -81.768539 117.4929
4110000000 -80.609695 116.06885
4120000000 -81.605431 111.38206
4130000000 -80.89875 109.6723
4140000000 -80.648079 117.44061
4150000000 -80.502289 111.16053
4160000000 -81.412003 104.9001
4170000000 -81.287018 115.02951
4180000000 -80.77301 110.19062
4190000000 -81.094337 108.11305
4200000000 -80.731956 112.474
4210000000 -80.278198 112.4604
4220000000 -80.458801 106.22635
4230000000 -81.012108 113.39037
4240000000 -79.946915 117.65086
4250000000 -81.149292 116.44047
4260000000 -79.705826 113.25897
4270000000 -80.420441 107.81605
4280000000 -81.183411 112.1628
4290000000 -80.445061 108.09238
4300000000 -80.922653 111.17002
4310000000 -81.704582 116.26665
4320000000 -80.199074 108.49651
4330000000 -80.309113 112.10349
4340000000 -80.60659 117.30489
4350000000 -81.030304 105.15199
4360000000 -79.865807 113.79808
4370000000 -80.34417 105.20229
4380000000 -80.967529 107.97392
4390000000 -81.107841 114.61095
4400000000 -80.240135 115.45535
4410000000 -79.749168 115.42633
4420000000 -79.333641 114.46228
4430000000 -80.089722 112.20421
4440000000 -79.60009 109.01259
4450000000 -79.663445 110.1506
4460000000 -79.723228 110.45039
4470000000 -79.784607 112.96507
4480000000 -79.375038 110.98323
4490000000 -79.743439 114.59675
4500000000 -79.685104 114.66496
4510000000 -79.604645 110.2494
4520000000 -79.506111 111.05859
4530000000 -79.553398 112.9329
4540000000 -79.338692 111.8935
4550000000 -79.482666 112.30981
4560000000 -78.981148 112.10652
4570000000 -80.080063 114.75388
4580000000 -78.958176 113.32758
4590000000 -78.962502 111.9529
4600000000 -79.742355 114.29318
4610000000 -79.190277 113.41584
4620000000 -79.017448 115.62656
4630000000 -79.441216 114.92966
4640000000 -79.359314 108.76463
4650000000 -79.117958 112.33549
4660000000 -79.311157 112.61021
4670000000 -79.451736 111.64149
4680000000 -79.042664 113.42287
4690000000 -79.341644 109.96341
4700000000 -79.167633 112.23274
4710000000 -78.557724 113.82594
4720000000 -79.200813 113.37173
4730000000 -78.720245 115.81242
4740000000 -79.294289 109.5929
4750000000 -78.99379 114.66247
4760000000 -79.395363 111.74195
4770000000 -78.902405 112.925
4780000000 -79.850723 112.95982
4790000000 -79.370247 115.73842
4800000000 -78.322258 112.10583
4810000000 -78.492821 116.99959
4820000000 -78.598106 115.84857
4830000000 -78.820129 113.18188
4840000000 -78.975555 117.41389
4850000000 -79.2388 110.9051
4860000000 -78.940018 113.36026
4870000000 -78.966614 112.93578
4880000000 -79.038582 110.02027
4890000000 -79.116287 114.12963
4900000000 -78.726501 111.6818
4910000000 -78.866158 113.32167
4920000000 -78.697357 112.74818
4930000000 -78.466965 112.01459
4940000000 -78.398262 114.03247
4950000000 -78.225418 112.6196
4960000000 -79.064133 112.69813
4970000000 -78.838097 112.27999
4980000000 -78.935242 114.44494
4990000000 -78.504601 114.37717
5000000000 -78.573204 113.48712
5010000000 -78.871391 112.58672
5020000000 -78.61924 113.35194
5030000000 -78.692993 116.61774
5040000000 -78.514412 109.65414
5050000000 -78.861252 112.1974
5060000000 -78.384506 112.33701
5070000000 -78.40976 117.40395
5080000000 -78.224586 118.65688
5090000000 -78.123344 113.40086
5100000000 -78.182335 118.69446
5110000000 -78.922668 112.0131
5120000000 -78.103668 111.73722
5130000000 -77.769112 116.95164
5140000000 -78.656433 111.70839
5150000000 -78.557365 113.75309
5160000000 -78.439293 114.6291
5170000000 -78.063095 114.19141
5180000000 -78.468353 111.10704
5190000000 -78.068726 113.08359
5200000000 -78.716011 114.13224
5210000000 -78.31395 112.95393
5220000000 -78.071732 115.63112
5230000000 -78.328636 112.28896
5240000000 -78.326347 112.52466
5250000000 -78.442886 113.13934
5260000000 -78.315948 111.54178
5270000000 -77.750885 110.76741
5280000000 -78.220032 112.75705
5290000000 -77.997803 112.26471
5300000000 -78.120712 110.66312
5310000000 -78.233704 112.18664
5320000000 -77.959251 113.4044
5330000000 -77.879631 113.57098
5340000000 -77.932899 112.19665
5350000000 -78.298515 112.80602
5360000000 -78.569138 113.05795
5370000000 -78.276604 116.01564
5380000000 -78.369354 114.35221
5390000000 -77.956154 111.62612
5400000000 -78.826813 112.34949
5410000000 -78.193039 113.52551
5420000000 -77.989334 115.13997
5430000000 -78.264381 111.73922
5440000000 -78.370461 114.0618
5450000000 -78.581505 113.60532
5460000000 -78.395668 113.22632
5470000000 -78.3256 112.54629
5480000000 -77.928703 116.06233
5490000000 -77.969368 111.93819
5500000000 -78.22361 112.15536
5510000000 -78.331818 112.23491
5520000000 -78.790802 113.0023
5530000000 -77.763115 114.13928
5540000000 -78.341133 112.98169
5550000000 -78.267311 108.88882
5560000000 -78.380554 112.09346
5570000000 -78.26162 112.46191
5580000000 -78.106956 111.39367
5590000000 -77.994331 111.17845
5600000000 -78.420387 112.39928
5610000000 -78.060135 111.68835
5620000000 -77.982079 109.91806
5630000000 -78.198952 110.11741
5640000000 -77.878525 109.01288
5650000000 -78.023979 114.71763
5660000000 -77.843712 110.77541
5670000000 -78.232841 112.11224
5680000000 -77.631409 110.07494
5690000000 -77.87439 107.74118
5700000000 -78.325935 108.90105
5710000000 -77.942078 109.66832
5720000000 -77.966873 109.60369
5730000000 -77.764847 109.21862
5740000000 -77.930984 111.80185
5750000000 -78.037003 110.1619
5760000000 -78.262993 113.34365
5770000000 -77.764961 111.48112
5780000000 -78.13311 110.3816
5790000000 -77.675003 113.20287
5800000000 -78.227127 105.37802
5810000000 -77.836739 107.90482
5820000000 -77.586159 112.66507
5830000000 -77.325172 107.85358
5840000000 -78.019142 109.16655
5850000000 -77.736938 108.02776
5860000000 -77.93045 107.11577
5870000000 -77.609749 110.6802
5880000000 -77.783295 109.29121
5890000000 -77.570404 111.00226
5900000000 -77.813766 108.81031
5910000000 -78.096428 110.20383
5920000000 -77.750397 108.3716
5930000000 -77.912079 108.44977
5940000000 -77.903183 104.75211
5950000000 -78.19957 109.17606
5960000000 -78.127747 103.39732
5970000000 -77.776268 108.354
5980000000 -77.868805 110.48849
5990000000 -77.925781 105.74956
6000000000 -78.003448 108.62511
6010000000 -77.553093 105.15471
6020000000 -77.730362 102.242
6030000000 -77.687531 109.06625
6040000000 -78.421776 108.52275
6050000000 -78.030518 109.28641
6060000000 -78.088478 106.79491
6070000000 -77.650574 106.16479
6080000000 -77.519203 107.06526
6090000000 -77.386223 104.14443
6100000000 -77.431839 106.07213
6110000000 -77.595238 107.10924
6120000000 -77.212502 104.98847
6130000000 -77.63739 103.12821
6140000000 -77.387192 103.90549
6150000000 -77.21183 103.02875
6160000000 -77.185944 108.04914
6170000000 -77.654457 105.74338
6180000000 -77.882607 101.69772
6190000000 -77.816513 102.43185
6200000000 -77.381226 102.19012
6210000000 -77.267189 104.45408
6220000000 -77.777473 104.40359
6230000000 -77.807045 101.28851
6240000000 -77.71312 106.39826
6250000000 -77.062103 103.88326
6260000000 -77.62413 101.89625
