!Keysight Technologies,N5242A,MY53222596,A.10.47.06
!Date: Thursday, November 09, 2017 12:27:13
!Correction: S33(Full 2 Port(1,3)) 
!S1P File: Measurement: S33:
# Hz S  MA   R 50
10000000 8.0016631e-005 102.9386
20000000 0.00013427333 81.794899
30000000 5.8625326e-005 44.344784
40000000 3.1703439e-005 93.545013
50000000 2.8355531e-005 148.51563
60000000 4.8576974e-005 127.47729
70000000 3.2478736e-005 113.32202
80000000 4.0445993e-005 134.50322
90000000 3.7093774e-005 -174.60567
100000000 4.330925e-005 -169.53906
110000000 3.569738e-005 -157.71301
120000000 3.4473309e-005 -145.51759
130000000 3.7636539e-005 -139.28252
140000000 2.7527496e-005 -113.11018
150000000 3.2707307e-005 -83.013504
160000000 3.2158157e-005 -68.652962
170000000 2.9696686e-005 -41.064526
180000000 2.5017875e-005 -13.023583
190000000 3.1461957e-005 6.5362568
200000000 4.5466e-005 16.173212
210000000 4.9260445e-005 40.542332
220000000 5.9330763e-005 58.634274
230000000 5.3501717e-005 60.47224
240000000 7.5251082e-005 72.826591
250000000 8.0618942e-005 83.710098
260000000 8.0929611e-005 87.113838
270000000 8.4617015e-005 101.49346
280000000 7.6711491e-005 108.30692
290000000 8.3019346e-005 128.39804
300000000 8.9360059e-005 126.4763
310000000 9.0470428e-005 130.03517
320000000 9.211366e-005 137.88031
330000000 8.4629741e-005 147.09984
340000000 7.2108145e-005 149.94135
350000000 6.2838175e-005 166.05672
360000000 5.5979766e-005 164.59196
370000000 5.5391942e-005 164.01239
380000000 4.1173069e-005 161.8896
390000000 4.2756466e-005 156.94461
400000000 2.8005485e-005 127.99093
410000000 3.3929857e-005 113.70244
420000000 4.9405277e-005 125.58865
430000000 7.0923066e-005 110.66899
440000000 8.1165337e-005 117.11053
450000000 8.2000734e-005 122.46134
460000000 9.7893724e-005 125.29289
470000000 0.00011683341 125.71435
480000000 0.00010740716 137.35289
490000000 0.00012176832 144.56085
500000000 0.00013748067 147.41646
510000000 0.00013433506 160.99536
520000000 0.00014298179 165.31902
530000000 0.00014603235 173.48587
540000000 0.00014714607 -178.91725
550000000 0.00013790648 -172.38098
560000000 0.00013004708 -161.47481
570000000 0.00012796326 -152.59071
580000000 0.00011815919 -145.80357
590000000 9.6976306e-005 -138.00761
600000000 8.923054e-005 -126.78313
610000000 8.5724372e-005 -115.63338
620000000 6.014467e-005 -99.315987
630000000 4.5668214e-005 -95.451279
640000000 3.6770016e-005 -51.650627
650000000 1.8527699e-005 -32.941254
660000000 2.8690714e-005 16.08029
670000000 3.9485472e-005 54.059456
680000000 5.2756244e-005 81.78759
690000000 6.3880965e-005 95.629784
700000000 7.5768206e-005 106.00485
710000000 9.2859584e-005 119.83167
720000000 0.00010032257 126.41198
730000000 0.00011842417 137.18645
740000000 0.00012285812 144.85506
750000000 0.00012939612 153.74266
760000000 0.00013602321 165.89804
770000000 0.00013430374 174.28145
780000000 0.00013195571 -176.92519
790000000 0.00012964731 -170.34944
800000000 0.00013384988 -164.64296
810000000 0.00011635623 -157.44089
820000000 0.0001163115 -147.82487
830000000 0.00010395412 -138.93785
840000000 8.7442691e-005 -131.16118
850000000 8.3305509e-005 -127.38726
860000000 6.1278472e-005 -121.26868
870000000 4.8436807e-005 -125.0465
880000000 3.2545049e-005 -113.74036
890000000 2.465857e-005 -132.92682
900000000 2.2938233e-005 -151.26173
910000000 1.5929181e-005 172.44933
920000000 3.9212977e-005 153.20755
930000000 4.7407793e-005 160.54147
940000000 5.2541935e-005 164.43073
950000000 6.6756911e-005 171.06598
960000000 7.9443635e-005 174.22644
970000000 7.628926e-005 177.4679
980000000 7.616057e-005 -168.3624
990000000 7.962856e-005 -161.55725
1000000000 8.2696817e-005 -158.7809
1010000000 8.3394953e-005 -150.32005
1020000000 7.3446179e-005 -144.20488
1030000000 6.6532382e-005 -128.34297
1040000000 5.034194e-005 -128.05925
1050000000 3.8987095e-005 -110.10561
1060000000 3.5628738e-005 -116.87903
1070000000 1.3832861e-005 -121.76077
1080000000 7.6371398e-006 -166.87016
1090000000 1.1121667e-005 131.83572
1100000000 3.1253585e-005 124.08833
1110000000 4.0760311e-005 127.80725
1120000000 5.3285479e-005 126.44846
1130000000 6.7713059e-005 143.0423
1140000000 7.6277327e-005 144.44771
1150000000 8.7963337e-005 152.54265
1160000000 0.00010140639 162.19713
1170000000 0.00010561067 168.13435
1180000000 0.00011638695 173.97917
1190000000 0.00011723606 -174.41536
1200000000 0.00011874345 -170.60304
1210000000 0.00010933992 -161.27298
1220000000 0.00010486617 -154.75259
1230000000 0.000107753 -147.44421
1240000000 9.8639866e-005 -147.71533
1250000000 9.1833834e-005 -137.86133
1260000000 7.0261049e-005 -128.01797
1270000000 7.4067859e-005 -132.46971
1280000000 6.0605747e-005 -132.77649
1290000000 4.6051762e-005 -121.99625
1300000000 2.3674171e-005 -153.85175
1310000000 3.1432879e-005 -155.53418
1320000000 4.0259783e-005 -179.28355
1330000000 4.4599565e-005 -173.08302
1340000000 5.4261756e-005 178.24603
1350000000 6.7991372e-005 -179.79626
1360000000 7.9538295e-005 -172.14552
1370000000 8.2235529e-005 -174.9261
1380000000 9.391136e-005 -165.564
1390000000 9.7107812e-005 -156.75163
1400000000 0.00010394245 -154.22322
1410000000 0.00010597414 -142.53958
1420000000 0.00010771794 -135.03439
1430000000 0.00010733896 -126.22519
1440000000 9.5054223e-005 -122.01297
1450000000 9.032961e-005 -111.38313
1460000000 7.7508608e-005 -106.41353
1470000000 7.9911079e-005 -102.78368
1480000000 5.8759961e-005 -84.932014
1490000000 3.7301317e-005 -86.312279
1500000000 3.3038439e-005 -78.226799
1510000000 1.4224055e-005 -97.210236
1520000000 8.8161387e-006 147.81032
1530000000 2.3238166e-005 175.41032
1540000000 3.4626919e-005 174.47971
1550000000 5.2102539e-005 172.65839
1560000000 6.2480198e-005 -175.29735
1570000000 8.3176499e-005 -170.92668
1580000000 8.1825601e-005 -158.63081
1590000000 0.00010117942 -148.70538
1600000000 0.00010942204 -141.67004
1610000000 0.00012233372 -135.0256
1620000000 0.00011209592 -121.31814
1630000000 0.00011946852 -117.53435
1640000000 0.00011913527 -103.80772
1650000000 0.00011666666 -89.100136
1660000000 0.00011258334 -81.501244
1670000000 0.00010484761 -63.666695
1680000000 8.7989269e-005 -47.541794
1690000000 8.5213862e-005 -35.648083
1700000000 7.6533892e-005 -17.541096
1710000000 7.535758e-005 6.8213654
1720000000 6.0899052e-005 28.787212
1730000000 6.0125938e-005 55.433601
1740000000 6.3422354e-005 69.395851
1750000000 7.232486e-005 96.371437
1760000000 8.4394364e-005 120.516
1770000000 9.2556176e-005 139.00301
1780000000 0.00011206494 149.326
1790000000 0.00012693691 167.31013
1800000000 0.00012890185 177.21303
1810000000 0.00014023999 -170.04263
1820000000 0.00014482072 -157.93886
1830000000 0.00015302976 -147.09566
1840000000 0.00015166306 -133.61917
1850000000 0.00015441238 -119.67866
1860000000 0.00016005467 -111.90112
1870000000 0.00015210357 -100.30266
1880000000 0.00013799379 -88.920784
1890000000 0.00014420181 -75.251251
1900000000 0.00012355618 -62.867146
1910000000 0.00012244674 -46.126507
1920000000 0.00010516968 -28.206518
1930000000 9.1472051e-005 -13.034759
1940000000 8.4233987e-005 3.7341511
1950000000 6.1254206e-005 21.232618
1960000000 6.1509272e-005 41.823303
1970000000 5.6015666e-005 70.210777
1980000000 5.4781009e-005 95.267593
1990000000 6.5493354e-005 120.45398
2000000000 6.5872991e-005 141.76967
2010000000 8.1129379e-005 160.80138
2020000000 8.8809364e-005 -179.77449
2030000000 8.5986998e-005 -154.61566
2040000000 0.0001029635 -139.88634
2050000000 0.00010148324 -128.95091
2060000000 0.0001112094 -117.7144
2070000000 0.00011083471 -102.93339
2080000000 0.00010439781 -94.137802
2090000000 0.00011165134 -87.121346
2100000000 0.00010706475 -63.68605
2110000000 8.689682e-005 -55.331631
2120000000 9.7243101e-005 -40.919209
2130000000 8.6897169e-005 -18.994757
2140000000 7.0042843e-005 -14.15589
2150000000 6.7785426e-005 2.0106235
2160000000 5.7274148e-005 23.053596
2170000000 4.3748554e-005 35.154675
2180000000 4.1925185e-005 88.528366
2190000000 4.7517991e-005 102.3864
2200000000 5.7940193e-005 128.76305
2210000000 6.1546547e-005 166.15329
2220000000 6.0279806e-005 177.4467
2230000000 7.9411453e-005 -154.8549
2240000000 8.5720101e-005 -143.60803
2250000000 0.00010666772 -130.61009
2260000000 0.00010379157 -119.02083
2270000000 0.00011390194 -100.15754
2280000000 0.00012638789 -86.183884
2290000000 0.00011941786 -77.196976
2300000000 0.00011835278 -65.009758
2310000000 0.00012238548 -50.135742
2320000000 0.0001115929 -40.525715
2330000000 0.00011146582 -26.006067
2340000000 9.3160204e-005 -12.910111
2350000000 9.0397232e-005 -4.7575831
2360000000 7.6989149e-005 17.020285
2370000000 7.1618335e-005 29.216305
2380000000 5.0902749e-005 52.815609
2390000000 4.4856493e-005 76.325516
2400000000 3.0600353e-005 106.21413
2410000000 2.1994794e-005 154.68813
2420000000 5.6693396e-005 -174.78084
2430000000 5.8517107e-005 -150.2088
2440000000 7.9181475e-005 -126.59075
2450000000 0.00010329453 -108.47012
2460000000 0.00011656993 -96.394081
2470000000 0.00013248279 -83.240158
2480000000 0.00014878072 -66.437523
2490000000 0.00016961982 -52.97345
2500000000 0.00017392387 -41.406582
2510000000 0.00018874017 -34.90292
2520000000 0.00020280221 -20.289873
2530000000 0.00019974598 -7.1825109
2540000000 0.00020406726 6.349885
2550000000 0.00020658661 14.653275
2560000000 0.0002059737 27.538355
2570000000 0.00021138662 39.891083
2580000000 0.00020093506 52.244686
2590000000 0.00019322673 65.361641
2600000000 0.00018492527 80.293327
2610000000 0.00017124107 92.342377
2620000000 0.00016187302 103.5562
2630000000 0.00015168323 125.82775
2640000000 0.00013832093 141.00029
2650000000 0.00011783914 158.24374
2660000000 0.00010616051 -179.20277
2670000000 0.00011132659 -156.46484
2680000000 0.00010626955 -130.35818
2690000000 0.00011686321 -112.5313
2700000000 0.00012618414 -88.99202
2710000000 0.00013140972 -71.051292
2720000000 0.00014279457 -51.469082
2730000000 0.00014998869 -35.192528
2740000000 0.00017621364 -20.479475
2750000000 0.00018673725 -7.3416638
2760000000 0.00018808787 6.9538112
2770000000 0.00019993341 18.432621
2780000000 0.00020163051 31.069199
2790000000 0.00019813652 42.907578
2800000000 0.00019464584 56.73518
2810000000 0.00019794208 68.879303
2820000000 0.00018345389 78.914459
2830000000 0.00017646192 93.212608
2840000000 0.00017126635 106.09737
2850000000 0.0001587701 117.88152
2860000000 0.00012804542 135.43224
2870000000 0.00012265738 150.77716
2880000000 0.00011462404 167.39032
2890000000 0.00010500874 -170.15616
2900000000 8.0528465e-005 -149.86682
2910000000 8.4590443e-005 -128.03001
2920000000 8.6662309e-005 -89.368149
2930000000 9.520485e-005 -69.871536
2940000000 0.00010746812 -51.015175
2950000000 0.00011875556 -33.084824
2960000000 0.00013419574 -24.822176
2970000000 0.00014847044 -9.8378172
2980000000 0.00015247497 5.9581037
2990000000 0.00016240834 16.507584
3000000000 0.00016448666 27.899267
3010000000 0.00016906172 40.69796
3020000000 0.00017208567 49.903252
3030000000 0.00017480605 57.567307
3040000000 0.00016471902 68.68895
3050000000 0.00015324535 75.291718
3060000000 0.00014457489 86.940491
3070000000 0.00014035677 91.038589
3080000000 0.00011491105 97.63913
3090000000 9.5178017e-005 107.6533
3100000000 8.5301857e-005 115.4082
3110000000 6.3588588e-005 119.61798
3120000000 4.9589573e-005 114.6954
3130000000 3.2234311e-005 101.23178
3140000000 2.7968488e-005 62.015099
3150000000 3.920072e-005 57.095757
3160000000 5.641767e-005 42.517899
3170000000 6.2298495e-005 41.100777
3180000000 7.4290059e-005 45.238312
3190000000 8.9125017e-005 54.670033
3200000000 9.7645709e-005 58.222034
3210000000 0.00011278907 64.041031
3220000000 0.00011260291 72.25988
3230000000 0.0001117628 76.281151
3240000000 0.00012405241 83.112244
3250000000 0.00012018411 88.679298
3260000000 0.00010043151 96.766006
3270000000 9.9701734e-005 109.67062
3280000000 9.0464331e-005 104.33519
3290000000 8.0210091e-005 115.35165
3300000000 5.7496789e-005 110.62986
3310000000 4.241717e-005 108.25828
3320000000 3.6666948e-005 104.36562
3330000000 4.0033614e-005 76.105881
3340000000 4.4641427e-005 63.292973
3350000000 5.1793999e-005 55.967373
3360000000 6.3160245e-005 43.031219
3370000000 9.4657102e-005 46.645321
3380000000 9.9510922e-005 55.177719
3390000000 0.00012076809 61.29332
3400000000 0.00013425526 64.158218
3410000000 0.00013756244 69.683701
3420000000 0.00015725948 80.420784
3430000000 0.00015763985 83.481941
3440000000 0.00015672023 90.799103
3450000000 0.00016512565 100.32164
3460000000 0.0001711346 109.29669
3470000000 0.00015033477 117.85046
3480000000 0.00014374072 121.82323
3490000000 0.00012679625 133.07651
3500000000 0.00011040049 132.22246
3510000000 0.00010652732 145.95509
3520000000 7.6423865e-005 149.6465
3530000000 5.5430595e-005 158.96732
3540000000 3.4817538e-005 166.1515
3550000000 1.3722822e-005 157.57686
3560000000 8.2532451e-006 -2.034426
3570000000 3.6319831e-005 15.068652
3580000000 5.3982854e-005 20.091696
3590000000 8.152282e-005 31.299685
3600000000 0.00011668875 41.398159
3610000000 0.00012338595 49.301735
3620000000 0.00015011286 56.943996
3630000000 0.00017003562 66.482689
3640000000 0.00017128079 73.597855
3650000000 0.00019078588 79.232353
3660000000 0.00020160689 90.37677
3670000000 0.00021497346 97.879128
3680000000 0.00020954839 104.97964
3690000000 0.00021181488 114.44232
3700000000 0.00021511852 119.38326
3710000000 0.00020384431 131.44307
3720000000 0.00019708338 135.49367
3730000000 0.00018376808 144.43106
3740000000 0.00015088903 151.34203
3750000000 0.0001505392 156.1319
3760000000 0.00012656662 166.1283
3770000000 0.00010467131 173.41846
3780000000 8.7071312e-005 175.33974
3790000000 6.069992e-005 173.68378
3800000000 4.6154979e-005 177.63451
3810000000 2.4377256e-005 155.44162
3820000000 2.7064456e-005 136.12225
3830000000 3.9674247e-005 98.706032
3840000000 4.6495403e-005 96.156433
3850000000 6.5034175e-005 78.834831
3860000000 7.0050504e-005 86.92688
3870000000 8.5948646e-005 99.617126
3880000000 8.2059414e-005 102.15778
3890000000 0.0001019238 103.2971
3900000000 9.7992801e-005 112.3059
3910000000 9.9746234e-005 123.40651
3920000000 9.8347366e-005 113.84357
3930000000 8.4995067e-005 117.66016
3940000000 8.589698e-005 124.17365
3950000000 7.1864008e-005 121.70065
3960000000 6.4894259e-005 113.20663
3970000000 5.9616843e-005 111.17456
3980000000 6.4190557e-005 103.1359
3990000000 7.6697499e-005 85.414902
4000000000 9.4072857e-005 77.289963
4010000000 0.00010622151 87.096497
4020000000 0.00012931997 85.219688
4030000000 0.00014551062 91.273201
4040000000 0.00016827347 95.583099
4050000000 0.00018364367 99.66037
4060000000 0.00019250627 110.62833
4070000000 0.00020107196 117.44487
4080000000 0.00021251115 127.61191
4090000000 0.00022084234 135.31133
4100000000 0.00022391802 144.60669
4110000000 0.00021890992 150.28067
4120000000 0.00022363575 163.82942
4130000000 0.00021284036 170.72847
4140000000 0.00020134544 -179.24797
4150000000 0.00017942718 -167.23421
4160000000 0.00018202474 -153.21031
4170000000 0.00016231516 -141.1819
4180000000 0.00014234254 -130.84801
4190000000 0.00011810152 -114.81592
4200000000 0.00010096256 -93.235672
4210000000 0.00010399877 -72.484123
4220000000 9.3482508e-005 -49.077843
4230000000 9.2026545e-005 -29.965151
4240000000 0.00010441965 -1.6791705
4250000000 0.00011429776 15.812423
4260000000 0.00012360673 36.485657
4270000000 0.00014698136 48.958778
4280000000 0.00015437699 59.280605
4290000000 0.00015946093 74.779732
4300000000 0.00018020987 85.215523
4310000000 0.00018071574 97.766144
4320000000 0.00017607825 106.51756
4330000000 0.00017977596 117.14365
4340000000 0.00017510272 128.01714
4350000000 0.0001661274 133.26599
4360000000 0.00015615443 141.8582
4370000000 0.00015497924 151.73395
4380000000 0.0001324195 159.36383
4390000000 0.00012298998 162.46645
4400000000 0.0001029399 171.65068
4410000000 9.2409078e-005 176.82133
4420000000 6.9300782e-005 -178.7946
4430000000 5.3644802e-005 -165.5385
4440000000 3.2545853e-005 169.69249
4450000000 2.9431952e-005 -177.78737
4460000000 2.8068449e-005 140.41385
4470000000 2.8330604e-005 102.04887
4480000000 2.9767245e-005 92.544647
4490000000 4.5872752e-005 97.162567
4500000000 4.015848e-005 101.88629
4510000000 5.0821818e-005 109.23401
4520000000 5.1666677e-005 108.44954
4530000000 4.8946502e-005 105.67091
4540000000 6.0923372e-005 101.98306
4550000000 5.7746642e-005 101.50995
4560000000 5.1399118e-005 100.99576
4570000000 5.4087086e-005 98.445526
4580000000 5.1750383e-005 98.08831
4590000000 5.2858628e-005 76.926506
4600000000 6.4499312e-005 75.854004
4610000000 7.5156975e-005 74.312843
4620000000 8.299484e-005 75.688309
4630000000 9.4813477e-005 79.976631
4640000000 9.130581e-005 77.076714
4650000000 0.00011121015 83.037346
4660000000 0.00012408711 84.301163
4670000000 0.00011971356 87.30854
4680000000 0.0001239916 88.201828
4690000000 0.00013018771 98.776924
4700000000 0.00012741641 102.116
4710000000 0.00013418429 103.85643
4720000000 0.00013242694 105.22691
4730000000 0.00012298432 110.78024
4740000000 0.0001203607 112.4423
4750000000 0.00012096519 113.9435
4760000000 0.0001165591 107.91249
4770000000 0.00011523016 110.47466
4780000000 0.0001165912 109.66529
4790000000 0.00011464608 106.4609
4800000000 0.00012132542 107.4252
4810000000 0.00012033651 104.36146
4820000000 0.00012296406 103.8597
4830000000 0.00013523857 106.48067
4840000000 0.00014260615 100.93371
4850000000 0.00014726153 107.48217
4860000000 0.00015607351 111.40973
4870000000 0.00015783105 112.65216
4880000000 0.00015652727 113.00068
4890000000 0.00016088715 117.87444
4900000000 0.00016801957 119.33748
4910000000 0.00016629141 122.24069
4920000000 0.00017526884 123.30924
4930000000 0.0001758726 125.48588
4940000000 0.00017063574 128.41963
4950000000 0.00016897346 125.93772
4960000000 0.00017085372 129.67903
4970000000 0.00016932406 131.89693
4980000000 0.00017299649 133.43524
4990000000 0.00016888046 134.93956
5000000000 0.00018345367 136.08446
5010000000 0.00017056115 140.58002
5020000000 0.00017735884 143.0827
5030000000 0.00017174768 145.24414
5040000000 0.00016488979 152.25066
5050000000 0.00016713215 153.44128
5060000000 0.00014966584 156.70625
5070000000 0.00014246222 160.16774
5080000000 0.00013177677 163.84419
5090000000 0.00011744196 166.43408
5100000000 9.5851879e-005 165.86722
5110000000 8.8261171e-005 151.74261
5120000000 7.6340344e-005 152.0192
5130000000 7.0665934e-005 141.88885
5140000000 7.3653107e-005 127.344
5150000000 8.6204222e-005 116.34171
5160000000 0.00010278742 107.88943
5170000000 0.00012090219 107.42489
5180000000 0.00013680133 108.29969
5190000000 0.00015988572 111.48296
5200000000 0.00018489604 114.81941
5210000000 0.00019670796 122.08342
5220000000 0.0002071257 128.49571
5230000000 0.00021552377 133.37895
5240000000 0.00022848928 139.42464
5250000000 0.00022608716 147.65541
5260000000 0.00022660609 153.67239
5270000000 0.00021671571 161.34425
5280000000 0.00021679062 167.20647
5290000000 0.00019449033 173.4782
5300000000 0.00017547612 179.72379
5310000000 0.00015966268 -172.44267
5320000000 0.00013823636 -168.88931
5330000000 0.00010999894 -162.83644
5340000000 8.4674808e-005 -160.36574
5350000000 6.4620377e-005 -157.83496
5360000000 3.7327598e-005 -177.45152
5370000000 3.7438458e-005 154.56789
5380000000 4.5636578e-005 121.61059
5390000000 5.5563476e-005 116.38973
5400000000 7.7896213e-005 116.60558
5410000000 9.9937206e-005 115.2464
5420000000 0.00010560968 116.51254
5430000000 0.00011840339 123.83368
5440000000 0.0001266761 122.52257
5450000000 0.00012745957 130.86623
5460000000 0.000117041 133.0809
5470000000 0.00010900574 131.16113
5480000000 0.00010436275 137.05043
5490000000 0.00010054464 136.70023
5500000000 9.1449845e-005 122.7319
5510000000 9.5250172e-005 115.37457
5520000000 9.8556273e-005 109.69672
5530000000 0.00010974301 100.13563
5540000000 0.00013267361 93.987534
5550000000 0.00016190713 95.720131
5560000000 0.0001873224 98.475731
5570000000 0.00021225848 103.70167
5580000000 0.00024454627 108.0166
5590000000 0.00027680572 113.56934
5600000000 0.00029640654 120.07807
