!Keysight Technologies,N5242A,MY53222596,A.10.47.06
!Date: Thursday, November 09, 2017 12:26:23
!Correction: S33(Full 2 Port(1,3)) 
!S1P File: Measurement: S33:
# Hz S  MA   R 50
10000000 0.99981296 -0.2323962
20000000 1.0001723 -0.4579246
30000000 1.0000952 -0.68918878
40000000 1.0000646 -0.91715801
50000000 1.0000066 -1.1486195
60000000 0.99999464 -1.3799385
70000000 0.9999907 -1.6107931
80000000 0.99998277 -1.8416655
90000000 0.99996388 -2.0715997
100000000 0.99991959 -2.3016205
110000000 0.99995494 -2.5292153
120000000 0.999964 -2.7583435
130000000 0.99993664 -2.9874432
140000000 0.99999422 -3.2150104
150000000 1.0000174 -3.4420583
160000000 1.0000515 -3.6688421
170000000 1.0000423 -3.8943796
180000000 1.0000136 -4.1195254
190000000 0.99999815 -4.3442039
200000000 1.0000291 -4.5676994
210000000 1.0000129 -4.7927256
220000000 1.0000666 -5.0166726
230000000 1.0000377 -5.2429256
240000000 1.0000266 -5.4709978
250000000 0.99996197 -5.6988196
260000000 0.99996889 -5.9269872
270000000 0.99990559 -6.1566682
280000000 0.99988961 -6.3868747
290000000 0.99985826 -6.6176853
300000000 0.99983275 -6.849474
310000000 0.99984443 -7.0832744
320000000 0.99976939 -7.3167329
330000000 0.99972624 -7.5474129
340000000 0.99970615 -7.7763557
350000000 0.99970102 -8.0045481
360000000 0.99971837 -8.2302046
370000000 0.99976802 -8.4551039
380000000 0.99979454 -8.6784105
390000000 0.99983686 -8.9046478
400000000 0.99984002 -9.1298113
410000000 0.99992633 -9.3541307
420000000 0.99987423 -9.5780554
430000000 0.99984783 -9.8029642
440000000 0.99986178 -10.029169
450000000 0.99982697 -10.253551
460000000 0.99981111 -10.48026
470000000 0.99981374 -10.710718
480000000 0.99977291 -10.93803
490000000 0.99969709 -11.166843
500000000 0.99968797 -11.395843
510000000 0.99968565 -11.626982
520000000 0.99968725 -11.857233
530000000 0.9996959 -12.090296
540000000 0.99973452 -12.322497
550000000 0.99972445 -12.552474
560000000 0.99977446 -12.788289
570000000 0.99969131 -13.022001
580000000 0.99965024 -13.250613
590000000 0.99963367 -13.476594
600000000 0.99965286 -13.704493
610000000 0.999695 -13.93023
620000000 0.99971575 -14.154797
630000000 0.99974084 -14.378019
640000000 0.99976319 -14.601548
650000000 0.99971712 -14.823713
660000000 0.99973744 -15.048157
670000000 0.99972826 -15.273311
680000000 0.9997136 -15.49583
690000000 0.99970567 -15.721231
700000000 0.99968833 -15.946369
710000000 0.99969208 -16.174496
720000000 0.99966091 -16.404573
730000000 0.99968398 -16.635454
740000000 0.99963695 -16.86668
750000000 0.99960673 -17.099237
760000000 0.99962264 -17.330984
770000000 0.99963939 -17.563988
780000000 0.99962735 -17.795832
790000000 0.9995842 -18.030748
800000000 0.99956018 -18.259207
810000000 0.99959183 -18.488449
820000000 0.99957955 -18.715351
830000000 0.99971223 -18.940346
840000000 0.99975508 -19.167198
850000000 0.9997682 -19.391691
860000000 0.99971223 -19.617609
870000000 0.99970263 -19.843512
880000000 0.99973041 -20.066147
890000000 0.99971026 -20.289753
900000000 0.99965328 -20.513552
910000000 0.99964386 -20.73781
920000000 0.99965382 -20.96113
930000000 0.99962223 -21.187897
940000000 0.99968755 -21.415436
950000000 0.99962354 -21.646713
960000000 0.99959576 -21.874012
970000000 0.99958324 -22.104935
980000000 0.99959719 -22.336643
990000000 0.99961853 -22.567472
1000000000 0.99959594 -22.797863
1010000000 0.99960196 -23.029661
1020000000 0.99962342 -23.263298
1030000000 0.99959403 -23.490408
1040000000 0.99964333 -23.717783
1050000000 0.9996618 -23.946356
1060000000 0.99966717 -24.17506
1070000000 0.99966389 -24.400877
1080000000 0.99969167 -24.625076
1090000000 0.99969262 -24.850313
1100000000 0.99970436 -25.076654
1110000000 0.99970704 -25.299477
1120000000 0.99971169 -25.523001
1130000000 0.99962044 -25.748297
1140000000 0.99966115 -25.973843
1150000000 0.99958783 -26.197416
1160000000 0.99961263 -26.42425
1170000000 0.99955404 -26.652571
1180000000 0.99956417 -26.88006
1190000000 0.99957073 -27.106962
1200000000 0.9996146 -27.337713
1210000000 0.99968088 -27.56691
1220000000 0.99964768 -27.797556
1230000000 0.9996773 -28.028986
1240000000 0.99969441 -28.259611
1250000000 0.99965268 -28.489523
1260000000 0.99966472 -28.716284
1270000000 0.99965799 -28.94664
1280000000 0.99965459 -29.172955
1290000000 0.99969417 -29.402012
1300000000 0.99974239 -29.631639
1310000000 0.99972928 -29.859047
1320000000 0.9997775 -30.087646
1330000000 0.99967307 -30.319235
1340000000 0.99965972 -30.543774
1350000000 0.99958813 -30.76977
1360000000 0.99957407 -30.99715
1370000000 0.99954325 -31.221024
1380000000 0.99952418 -31.446178
1390000000 0.99956644 -31.67388
1400000000 0.99957192 -31.899046
1410000000 0.99960876 -32.128056
1420000000 0.9995811 -32.357349
1430000000 0.99961299 -32.587646
1440000000 0.99960065 -32.816559
1450000000 0.99956483 -33.044659
1460000000 0.99955642 -33.270081
1470000000 0.99953878 -33.498123
1480000000 0.99959755 -33.725487
1490000000 0.99962312 -33.953266
1500000000 0.99965429 -34.182228
1510000000 0.99965912 -34.410686
1520000000 0.99964529 -34.639584
1530000000 0.99963742 -34.869907
1540000000 0.99959099 -35.097267
1550000000 0.99952275 -35.323029
1560000000 0.99952859 -35.550007
1570000000 0.99952573 -35.774639
1580000000 0.99952167 -36.000561
1590000000 0.99946934 -36.225697
1600000000 0.99953872 -36.449661
1610000000 0.99956357 -36.673664
1620000000 0.99960476 -36.901958
1630000000 0.99961561 -37.129997
1640000000 0.99958748 -37.355556
1650000000 0.99965018 -37.581985
1660000000 0.99962312 -37.808628
1670000000 0.99965024 -38.038445
1680000000 0.99970716 -38.265556
1690000000 0.99969417 -38.493488
1700000000 0.99966842 -38.723904
1710000000 0.99965954 -38.956703
1720000000 0.99969167 -39.186363
1730000000 0.99961084 -39.416573
1740000000 0.99960577 -39.648232
1750000000 0.9996171 -39.879799
1760000000 0.99958783 -40.110855
1770000000 0.99954504 -40.340214
1780000000 0.99953151 -40.569798
1790000000 0.99948335 -40.798019
1800000000 0.99946237 -41.027321
1810000000 0.99945682 -41.25631
1820000000 0.99942243 -41.481026
1830000000 0.99942398 -41.706608
1840000000 0.99946195 -41.92905
1850000000 0.99948841 -42.153301
1860000000 0.99951178 -42.378559
1870000000 0.99957877 -42.599819
1880000000 0.99958307 -42.824524
1890000000 0.99956739 -43.050121
1900000000 0.99959421 -43.275879
1910000000 0.99956882 -43.501671
1920000000 0.99955314 -43.727112
1930000000 0.99959159 -43.954052
1940000000 0.99957573 -44.183746
1950000000 0.99957651 -44.413643
1960000000 0.9995715 -44.642769
1970000000 0.99950868 -44.87299
1980000000 0.9995203 -45.103233
1990000000 0.99950629 -45.332527
2000000000 0.99945259 -45.564007
2010000000 0.99946713 -45.795048
2020000000 0.99946296 -46.023808
2030000000 0.99946755 -46.254112
2040000000 0.99946582 -46.482121
2050000000 0.99945045 -46.709461
2060000000 0.9994722 -46.932964
2070000000 0.9994809 -47.155697
2080000000 0.99955314 -47.379669
2090000000 0.99958587 -47.606571
2100000000 0.99964607 -47.835506
2110000000 0.99966866 -48.063244
2120000000 0.99967754 -48.29052
2130000000 0.99961358 -48.519073
2140000000 0.99957013 -48.74807
2150000000 0.99954289 -48.97559
2160000000 0.9995448 -49.2024
2170000000 0.9995169 -49.432659
2180000000 0.99954939 -49.661343
2190000000 0.99951237 -49.896805
2200000000 0.99949378 -50.12767
2210000000 0.99947757 -50.3591
2220000000 0.99946684 -50.590561
2230000000 0.99943966 -50.820065
2240000000 0.9994176 -51.045174
2250000000 0.99940652 -51.272835
2260000000 0.99937445 -51.492153
2270000000 0.99940205 -51.717644
2280000000 0.99948084 -51.941395
2290000000 0.99952722 -52.165916
2300000000 0.99949414 -52.388035
2310000000 0.9995029 -52.610733
2320000000 0.99947947 -52.835995
2330000000 0.99948275 -53.058876
2340000000 0.99949515 -53.287983
2350000000 0.99942034 -53.512218
2360000000 0.99938285 -53.739487
2370000000 0.99937111 -53.970043
2380000000 0.99937057 -54.195625
2390000000 0.99938619 -54.429443
2400000000 0.9993915 -54.662102
2410000000 0.99937594 -54.896687
2420000000 0.99933791 -55.12981
2430000000 0.99933618 -55.362465
2440000000 0.99926376 -55.594482
2450000000 0.99925661 -55.823177
2460000000 0.9992134 -56.049423
2470000000 0.99925578 -56.274723
2480000000 0.99928206 -56.498196
2490000000 0.99934113 -56.723946
2500000000 0.99937224 -56.948826
2510000000 0.99945873 -57.173794
2520000000 0.99943393 -57.400734
2530000000 0.9994092 -57.621914
2540000000 0.99940753 -57.848732
2550000000 0.99936682 -58.070404
2560000000 0.99941796 -58.294342
2570000000 0.99944961 -58.521614
2580000000 0.99945861 -58.750195
2590000000 0.99947369 -58.982304
2600000000 0.99941927 -59.21917
2610000000 0.9994002 -59.45351
2620000000 0.99929476 -59.688042
2630000000 0.99924368 -59.919788
2640000000 0.99920636 -60.15295
2650000000 0.9991951 -60.382732
2660000000 0.99917358 -60.612957
2670000000 0.9992584 -60.83894
2680000000 0.99925935 -61.069618
2690000000 0.99930859 -61.295422
2700000000 0.99930292 -61.519951
2710000000 0.99930799 -61.743156
2720000000 0.99930698 -61.964523
2730000000 0.99926692 -62.186298
2740000000 0.99930167 -62.408566
2750000000 0.99932408 -62.630211
2760000000 0.99931502 -62.854408
2770000000 0.99932617 -63.077938
2780000000 0.99924093 -63.304058
2790000000 0.99921876 -63.52927
2800000000 0.99922472 -63.758438
2810000000 0.99917614 -63.987366
2820000000 0.99917346 -64.219261
2830000000 0.99918485 -64.455849
2840000000 0.99917001 -64.692032
2850000000 0.99909323 -64.926971
2860000000 0.99907738 -65.162102
2870000000 0.99902993 -65.394989
2880000000 0.9990586 -65.627235
2890000000 0.99905097 -65.854843
2900000000 0.99908298 -66.085228
2910000000 0.99915963 -66.31028
2920000000 0.99917924 -66.536758
2930000000 0.99919665 -66.761589
2940000000 0.99917746 -66.985077
2950000000 0.99915969 -67.20681
2960000000 0.99918592 -67.427887
2970000000 0.99915266 -67.648598
2980000000 0.99917209 -67.869675
2990000000 0.99913716 -68.093254
3000000000 0.99913245 -68.319962
3010000000 0.99913812 -68.54425
3020000000 0.99914908 -68.775482
3030000000 0.99913275 -69.001205
3040000000 0.99912465 -69.230186
3050000000 0.99904466 -69.460075
3060000000 0.99903816 -69.694954
3070000000 0.99903035 -69.925568
3080000000 0.99902719 -70.159859
3090000000 0.99900365 -70.390419
3100000000 0.99900544 -70.622017
3110000000 0.99898404 -70.849495
3120000000 0.99899328 -71.078293
3130000000 0.99904996 -71.30999
3140000000 0.99911159 -71.535393
3150000000 0.99911708 -71.767799
3160000000 0.9990924 -71.993721
3170000000 0.99908662 -72.222038
3180000000 0.9990626 -72.445282
3190000000 0.99905854 -72.672592
3200000000 0.99904603 -72.895195
3210000000 0.9990989 -73.121689
3220000000 0.99910456 -73.351021
3230000000 0.99908751 -73.580467
3240000000 0.99909246 -73.81192
3250000000 0.99898052 -74.039879
3260000000 0.99893278 -74.267227
3270000000 0.99889457 -74.492851
3280000000 0.99884576 -74.720047
3290000000 0.99889982 -74.945259
3300000000 0.99890029 -75.173622
3310000000 0.99888021 -75.399399
3320000000 0.99893153 -75.628128
3330000000 0.99895412 -75.853561
3340000000 0.99889833 -76.075478
3350000000 0.99895531 -76.302063
3360000000 0.99899739 -76.524498
3370000000 0.99905556 -76.751091
3380000000 0.99907196 -76.980629
3390000000 0.99907106 -77.213913
3400000000 0.99904346 -77.442703
3410000000 0.99896657 -77.67115
3420000000 0.99887884 -77.903763
3430000000 0.99891353 -78.129433
3440000000 0.99882299 -78.36306
3450000000 0.99880934 -78.594276
3460000000 0.99884075 -78.826897
3470000000 0.99884981 -79.061127
3480000000 0.9988535 -79.293121
3490000000 0.9988547 -79.526588
3500000000 0.99878401 -79.759377
3510000000 0.99879843 -79.988869
3520000000 0.9987337 -80.213173
3530000000 0.9987365 -80.438881
3540000000 0.99880105 -80.662758
3550000000 0.99879742 -80.888184
3560000000 0.99882507 -81.110405
3570000000 0.99885088 -81.333656
3580000000 0.99882281 -81.554199
3590000000 0.99886018 -81.778893
3600000000 0.99886352 -82.001907
3610000000 0.99887735 -82.226624
3620000000 0.99894434 -82.452385
3630000000 0.99894661 -82.679733
3640000000 0.99887311 -82.910362
3650000000 0.99885106 -83.140823
3660000000 0.99881619 -83.370735
3670000000 0.99875671 -83.602119
3680000000 0.99869734 -83.833801
3690000000 0.99868542 -84.063499
3700000000 0.99869281 -84.294762
3710000000 0.99866712 -84.525139
3720000000 0.99865353 -84.754646
3730000000 0.99866247 -84.985451
3740000000 0.99866259 -85.21283
3750000000 0.99867779 -85.439095
3760000000 0.998689 -85.666718
3770000000 0.99873078 -85.896049
3780000000 0.99872261 -86.122734
3790000000 0.99869317 -86.351563
3800000000 0.99874669 -86.575859
3810000000 0.99875486 -86.804573
3820000000 0.99872565 -87.031227
3830000000 0.99875575 -87.260536
3840000000 0.99876022 -87.492378
3850000000 0.9987272 -87.726143
3860000000 0.99868935 -87.954475
3870000000 0.99860972 -88.187195
3880000000 0.99852502 -88.416336
3890000000 0.99854922 -88.644722
3900000000 0.9985736 -88.872719
3910000000 0.99861836 -89.100594
3920000000 0.99863309 -89.328682
3930000000 0.99866056 -89.559204
3940000000 0.99861616 -89.78746
3950000000 0.99857444 -90.015167
3960000000 0.99851668 -90.23983
3970000000 0.9984867 -90.462173
3980000000 0.99852967 -90.681808
3990000000 0.99864095 -90.904182
4000000000 0.99864507 -91.131638
4010000000 0.99874681 -91.360367
4020000000 0.99871218 -91.588013
4030000000 0.99864364 -91.82283
4040000000 0.99863899 -92.051414
4050000000 0.99856097 -92.284042
4060000000 0.99861753 -92.515015
4070000000 0.99858439 -92.747139
4080000000 0.99856597 -92.982056
4090000000 0.9985677 -93.213898
4100000000 0.99854606 -93.442467
4110000000 0.99847704 -93.676834
4120000000 0.99840617 -93.903854
4130000000 0.99841255 -94.131958
4140000000 0.99838114 -94.355598
4150000000 0.99843854 -94.579727
4160000000 0.99846953 -94.800369
4170000000 0.99848676 -95.026855
4180000000 0.9985522 -95.249916
4190000000 0.99849802 -95.474251
4200000000 0.99846792 -95.700851
4210000000 0.99844646 -95.922569
4220000000 0.99843621 -96.148491
4230000000 0.9984079 -96.371109
4240000000 0.99841118 -96.5989
4250000000 0.99841571 -96.828384
4260000000 0.9984833 -97.05674
4270000000 0.99848819 -97.292023
4280000000 0.99845445 -97.523994
4290000000 0.99846327 -97.760216
4300000000 0.99838126 -97.996117
4310000000 0.99837285 -98.234344
4320000000 0.9983319 -98.466324
4330000000 0.99831784 -98.700653
4340000000 0.9982636 -98.931679
4350000000 0.9982028 -99.159203
4360000000 0.99822861 -99.383362
4370000000 0.9982239 -99.611435
4380000000 0.99827302 -99.834892
4390000000 0.99832052 -100.06054
4400000000 0.99831796 -100.28725
4410000000 0.99833703 -100.51245
4420000000 0.99833375 -100.73593
4430000000 0.99831134 -100.95782
4440000000 0.9983933 -101.18569
4450000000 0.99843264 -101.41123
4460000000 0.99839091 -101.63772
4470000000 0.99839491 -101.8692
4480000000 0.99837112 -102.09896
4490000000 0.99828953 -102.33057
4500000000 0.99824178 -102.56361
4510000000 0.99818748 -102.79046
4520000000 0.99818379 -103.01681
4530000000 0.99817783 -103.24798
4540000000 0.9981665 -103.47687
4550000000 0.99818629 -103.70608
4560000000 0.99818283 -103.93854
4570000000 0.99815053 -104.16702
4580000000 0.99818164 -104.39482
4590000000 0.99808359 -104.61903
4600000000 0.99811596 -104.84563
4610000000 0.99813873 -105.0694
4620000000 0.99815369 -105.29338
4630000000 0.99817246 -105.52077
4640000000 0.99818438 -105.75006
4650000000 0.99816483 -105.9816
4660000000 0.99812609 -106.21127
4670000000 0.99811107 -106.43876
4680000000 0.99808955 -106.66727
4690000000 0.99811351 -106.89845
4700000000 0.99817282 -107.12917
4710000000 0.99818236 -107.36375
4720000000 0.99815083 -107.59717
4730000000 0.99813557 -107.83124
4740000000 0.99807101 -108.06416
4750000000 0.99799865 -108.29305
4760000000 0.99790269 -108.51922
4770000000 0.99794245 -108.74487
4780000000 0.99794292 -108.96926
4790000000 0.99794728 -109.19635
4800000000 0.99797302 -109.4247
4810000000 0.99802804 -109.64856
4820000000 0.99803025 -109.87537
4830000000 0.99797928 -110.10259
4840000000 0.99795181 -110.32861
4850000000 0.99797195 -110.55128
4860000000 0.99801069 -110.77808
4870000000 0.99798644 -111.00523
4880000000 0.99799371 -111.23649
4890000000 0.99802792 -111.46847
4900000000 0.9979803 -111.69804
4910000000 0.99799299 -111.93128
4920000000 0.99796355 -112.16277
4930000000 0.99798703 -112.39149
4940000000 0.99793369 -112.62386
4950000000 0.99791312 -112.85303
4960000000 0.99788755 -113.08267
4970000000 0.99785811 -113.30963
4980000000 0.99777794 -113.53434
4990000000 0.99785948 -113.75974
5000000000 0.99778903 -113.98386
5010000000 0.99786466 -114.20796
5020000000 0.99787539 -114.43452
5030000000 0.99786013 -114.6636
5040000000 0.99782777 -114.89112
5050000000 0.9977898 -115.11785
5060000000 0.997715 -115.34269
5070000000 0.99768728 -115.56772
5080000000 0.99769759 -115.79348
5090000000 0.99782753 -116.02341
5100000000 0.99785924 -116.25432
5110000000 0.99789488 -116.4887
5120000000 0.99792504 -116.72475
5130000000 0.99788588 -116.96185
5140000000 0.99780941 -117.19523
5150000000 0.99772823 -117.42197
5160000000 0.99764216 -117.65046
5170000000 0.99757695 -117.87331
5180000000 0.99757862 -118.10023
5190000000 0.99764895 -118.32738
5200000000 0.99772191 -118.55493
5210000000 0.99772388 -118.78237
5220000000 0.99764007 -119.00825
5230000000 0.99764377 -119.23013
5240000000 0.997585 -119.45563
5250000000 0.99755913 -119.67847
5260000000 0.99757123 -119.90217
5270000000 0.99760205 -120.12956
5280000000 0.99760449 -120.35664
5290000000 0.9975813 -120.58253
5300000000 0.99756014 -120.81107
5310000000 0.99755275 -121.03983
5320000000 0.99753916 -121.26797
5330000000 0.99759322 -121.50011
5340000000 0.99762833 -121.73444
5350000000 0.99766672 -121.96662
5360000000 0.99766922 -122.2001
5370000000 0.99756998 -122.43407
5380000000 0.99753934 -122.66396
5390000000 0.99748015 -122.89006
5400000000 0.99739134 -123.11775
5410000000 0.99742711 -123.34162
5420000000 0.99746418 -123.56242
5430000000 0.99745542 -123.78702
5440000000 0.99743766 -124.01091
5450000000 0.99740559 -124.23292
5460000000 0.99743313 -124.45575
5470000000 0.99745822 -124.68034
5480000000 0.99744803 -124.90613
5490000000 0.99749744 -125.13577
5500000000 0.99754828 -125.36516
5510000000 0.99744898 -125.59904
5520000000 0.99736196 -125.833
5530000000 0.99731731 -126.06207
5540000000 0.99728233 -126.29248
5550000000 0.99725872 -126.52052
5560000000 0.9973135 -126.74965
5570000000 0.997356 -126.98166
5580000000 0.99742687 -127.21674
5590000000 0.99749523 -127.45472
5600000000 0.99744093 -127.69025
5610000000 0.99737281 -127.92213
5620000000 0.99722934 -128.14923
5630000000 0.99719703 -128.36998
5640000000 0.99716318 -128.5903
5650000000 0.99713683 -128.8112
5660000000 0.99722493 -129.03081
5670000000 0.99730337 -129.25658
5680000000 0.99732906 -129.48056
5690000000 0.99736392 -129.70738
5700000000 0.99731404 -129.93564
5710000000 0.99727559 -130.16426
5720000000 0.99727511 -130.3938
5730000000 0.99721497 -130.62566
5740000000 0.99728709 -130.85654
5750000000 0.99725521 -131.09073
5760000000 0.99725664 -131.32507
5770000000 0.99719709 -131.56039
5780000000 0.99718422 -131.79616
5790000000 0.99719024 -132.03014
5800000000 0.99721056 -132.26344
5810000000 0.99722522 -132.49773
5820000000 0.99718249 -132.72546
5830000000 0.99716789 -132.95395
5840000000 0.99713022 -133.17833
5850000000 0.99711019 -133.40039
5860000000 0.99705935 -133.61771
5870000000 0.99706763 -133.83775
5880000000 0.99707627 -134.05515
5890000000 0.99706012 -134.27625
5900000000 0.99702728 -134.49522
5910000000 0.99699384 -134.71614
5920000000 0.99699622 -134.93663
5930000000 0.99692613 -135.15967
5940000000 0.99693406 -135.38516
5950000000 0.99704075 -135.6116
5960000000 0.99706393 -135.84296
5970000000 0.99705499 -136.07967
5980000000 0.99707657 -136.31937
5990000000 0.99702799 -136.56143
6000000000 0.99698591 -136.80215
6010000000 0.99692035 -137.04008
6020000000 0.99681503 -137.27428
6030000000 0.99682301 -137.50584
6040000000 0.99689728 -137.74084
6050000000 0.99694192 -137.97723
6060000000 0.99697101 -138.20602
6070000000 0.99699467 -138.42732
