!Keysight Technologies,N5242A,MY53222596,A.10.47.06
!Date: Thursday, November 09, 2017 11:57:32
!Correction: S11(Full 2 Port(1,3)) 
!S1P File: Measurement: S11:
# Hz S  MA   R 50
10000000 1.0002453 -0.22135255
20000000 1.000069 -0.45373192
30000000 1.0000716 -0.68429738
40000000 1.0000639 -0.90933448
50000000 1.0000699 -1.1383783
60000000 1.0000763 -1.3658072
70000000 1.0000883 -1.5923961
80000000 1.0000829 -1.821934
90000000 1.0000734 -2.0517101
100000000 1.000075 -2.2793195
110000000 1.0000426 -2.5070548
120000000 1.000061 -2.7334368
130000000 1.000044 -2.9626777
140000000 1.0000153 -3.1903434
150000000 1.0000604 -3.4155684
160000000 1.0000769 -3.6460836
170000000 1.0000924 -3.8748674
180000000 1.0000693 -4.1039233
190000000 1.0000958 -4.331727
200000000 1.0001028 -4.5607858
210000000 1.0000485 -4.7895164
220000000 1.0000333 -5.0182295
230000000 1.0000353 -5.2452879
240000000 1.0000767 -5.4743299
250000000 1.0000821 -5.7029881
260000000 1.0000846 -5.929419
270000000 1.0001173 -6.1569934
280000000 1.0001186 -6.3851395
290000000 1.0001428 -6.6126714
300000000 1.0001876 -6.8431096
310000000 1.0001417 -7.0722938
320000000 1.0001646 -7.3009987
330000000 1.0000935 -7.5317974
340000000 1.0001032 -7.7587175
350000000 1.0000997 -7.9889174
360000000 1.0000441 -8.216857
370000000 1.0000283 -8.4427052
380000000 1.0000525 -8.6711044
390000000 1.0000348 -8.8986139
400000000 1.0000703 -9.1249084
410000000 1.0000764 -9.3531647
420000000 1.0001045 -9.5797052
430000000 1.0000888 -9.8082418
440000000 1.00011 -10.03758
450000000 1.0001249 -10.265868
460000000 1.0001494 -10.495657
470000000 1.000073 -10.726196
480000000 1.000048 -10.952458
490000000 1.0000645 -11.181808
500000000 1.0000287 -11.408735
510000000 1.0000644 -11.635406
520000000 1.000069 -11.863626
530000000 1.0001156 -12.091296
540000000 1.0000368 -12.318287
550000000 1.000055 -12.546583
560000000 1.0000471 -12.774566
570000000 1.0000676 -13.002608
580000000 1.0001006 -13.232556
590000000 1.0001323 -13.46077
600000000 1.0001012 -13.688311
610000000 1.000105 -13.914433
620000000 1.000073 -14.14649
630000000 1.0001318 -14.37461
640000000 1.0001132 -14.602499
650000000 1.000101 -14.8301
660000000 1.0000789 -15.059874
670000000 1.0000621 -15.285081
680000000 1.00008 -15.516197
690000000 1.0000751 -15.743349
700000000 1.0001032 -15.971437
710000000 1.0001042 -16.201492
720000000 1.0000629 -16.429617
730000000 1.0000787 -16.657181
740000000 1.0000753 -16.885077
750000000 1.0000198 -17.115412
760000000 1.0000324 -17.339527
770000000 1.0000256 -17.569033
780000000 1.0000452 -17.794729
790000000 1.0000288 -18.023409
800000000 1.0000608 -18.250605
810000000 1.0000581 -18.479809
820000000 1.0000355 -18.708063
830000000 1.0000511 -18.93671
840000000 1.0001267 -19.165567
850000000 1.0000807 -19.393002
860000000 1.0000851 -19.622692
870000000 1.0000962 -19.84919
880000000 1.0000399 -20.078869
890000000 1.0000333 -20.305258
900000000 1.0000377 -20.535187
910000000 1.000087 -20.760427
920000000 1.0001158 -20.990107
930000000 1.0000665 -21.217094
940000000 1.0000675 -21.444954
950000000 1.0000967 -21.6717
960000000 1.0001441 -21.900055
970000000 1.0000942 -22.12833
980000000 1.0001323 -22.358547
990000000 1.0001113 -22.587431
1000000000 1.0001051 -22.815079
1010000000 1.0000821 -23.043781
1020000000 1.0000284 -23.272667
1030000000 1.0000474 -23.498585
1040000000 1.0000583 -23.726368
1050000000 1.0000516 -23.956703
1060000000 1.0000625 -24.186096
1070000000 1.0000267 -24.412296
1080000000 1.000104 -24.641626
1090000000 1.0001068 -24.870865
1100000000 1.0000349 -25.100039
1110000000 1.0000517 -25.326757
1120000000 0.99997723 -25.555676
1130000000 0.99997318 -25.782972
1140000000 0.99998587 -26.011015
1150000000 0.99995959 -26.235453
1160000000 0.99992591 -26.464943
1170000000 0.99996388 -26.690619
1180000000 0.99997014 -26.917456
1190000000 0.99997956 -27.145914
1200000000 0.99996841 -27.37389
1210000000 1.0000015 -27.602512
1220000000 0.99999452 -27.828787
1230000000 0.9999752 -28.059454
1240000000 0.99997884 -28.291338
1250000000 1.0000437 -28.515379
1260000000 0.99998724 -28.742178
1270000000 1.0000359 -28.970943
1280000000 1.0000625 -29.197266
1290000000 0.99997807 -29.428789
1300000000 0.99994141 -29.656334
1310000000 0.99998665 -29.884493
1320000000 1.0000278 -30.111771
1330000000 1.0000063 -30.339073
1340000000 0.99998385 -30.567963
1350000000 0.99999398 -30.795349
1360000000 0.9999963 -31.024536
1370000000 1.0000532 -31.255999
1380000000 0.99998856 -31.481531
1390000000 0.99997711 -31.710123
1400000000 0.99999088 -31.939734
1410000000 0.99996859 -32.166134
1420000000 0.99993092 -32.394882
1430000000 0.99997658 -32.622494
1440000000 0.99990451 -32.851326
1450000000 0.99992967 -33.079063
1460000000 0.99996763 -33.30722
1470000000 0.99995309 -33.536091
1480000000 0.99992341 -33.763649
1490000000 0.99990439 -33.99062
1500000000 0.99990845 -34.217663
1510000000 0.99993283 -34.446026
1520000000 0.99996662 -34.671188
1530000000 0.99995834 -34.900616
1540000000 0.9999702 -35.127357
1550000000 0.99994999 -35.356422
1560000000 0.99992412 -35.584038
1570000000 0.99992847 -35.813225
1580000000 0.99995106 -36.039749
1590000000 0.99995726 -36.268444
1600000000 0.99999261 -36.497925
1610000000 0.99998689 -36.725941
1620000000 0.99992746 -36.955265
1630000000 0.99989933 -37.182812
1640000000 0.99992794 -37.409733
1650000000 0.99993932 -37.636097
1660000000 0.99993169 -37.865082
1670000000 0.99989116 -38.091526
1680000000 0.99987012 -38.318069
1690000000 0.99987656 -38.54451
1700000000 0.99983501 -38.774494
1710000000 0.99987626 -39.002911
1720000000 0.99993563 -39.233692
1730000000 0.99996054 -39.459373
1740000000 0.99992228 -39.689274
1750000000 0.99993861 -39.917706
1760000000 0.99992132 -40.148968
1770000000 0.99997282 -40.377026
1780000000 0.99992657 -40.603661
1790000000 0.99990332 -40.832352
1800000000 0.99986017 -41.061035
1810000000 0.99984509 -41.2883
1820000000 0.99981052 -41.518566
1830000000 0.99982339 -41.744934
1840000000 0.99982417 -41.973736
1850000000 0.99983174 -42.202072
1860000000 0.99981302 -42.428787
1870000000 0.99981058 -42.656837
1880000000 0.99979758 -42.88406
1890000000 0.99979699 -43.113876
1900000000 0.99979264 -43.339073
1910000000 0.99979335 -43.567974
1920000000 0.99978441 -43.793934
1930000000 0.99978423 -44.018803
1940000000 0.99978942 -44.246304
1950000000 0.99983466 -44.475098
1960000000 0.99978274 -44.702881
1970000000 0.99982792 -44.927006
1980000000 0.99982452 -45.158379
1990000000 0.99984771 -45.388107
2000000000 0.9998486 -45.614281
2010000000 0.99981529 -45.84346
2020000000 0.99981034 -46.074802
2030000000 0.99981022 -46.300503
2040000000 0.99978799 -46.528336
2050000000 0.99971944 -46.75658
2060000000 0.99972504 -46.983803
2070000000 0.99979925 -47.212662
2080000000 0.9998349 -47.437527
2090000000 0.99979824 -47.666908
2100000000 0.99981934 -47.894451
2110000000 0.99973416 -48.124451
2120000000 0.9998138 -48.352219
2130000000 0.99978846 -48.580074
2140000000 0.99977642 -48.808556
2150000000 0.99978381 -49.035484
2160000000 0.99976826 -49.265011
2170000000 0.99972379 -49.490734
2180000000 0.99973536 -49.721607
2190000000 0.99974579 -49.94582
2200000000 0.99970841 -50.176712
2210000000 0.99973214 -50.402847
2220000000 0.99975771 -50.632061
2230000000 0.99974817 -50.862511
2240000000 0.99973834 -51.089691
2250000000 0.99967515 -51.316669
2260000000 0.99966162 -51.54528
2270000000 0.99969071 -51.773354
2280000000 0.99970537 -52.000267
2290000000 0.99966693 -52.227634
2300000000 0.99968404 -52.453449
2310000000 0.99970073 -52.678291
2320000000 0.9997279 -52.908043
2330000000 0.99977994 -53.134377
2340000000 0.99980748 -53.364567
2350000000 0.99973005 -53.595299
2360000000 0.99973315 -53.823265
2370000000 0.99976426 -54.052872
2380000000 0.9997651 -54.279289
2390000000 0.99966913 -54.507828
2400000000 0.99968535 -54.738552
2410000000 0.99966013 -54.963497
2420000000 0.99961889 -55.191235
2430000000 0.999681 -55.416336
2440000000 0.99965239 -55.645992
2450000000 0.99971324 -55.87151
2460000000 0.99968284 -56.096939
2470000000 0.99970269 -56.325974
2480000000 0.99975783 -56.554737
2490000000 0.9997617 -56.783493
2500000000 0.99976778 -57.01313
2510000000 0.99980581 -57.241222
2520000000 0.99976361 -57.47187
2530000000 0.99977088 -57.700184
2540000000 0.99973136 -57.93029
2550000000 0.99974388 -58.156727
2560000000 0.99972534 -58.387463
2570000000 0.9997018 -58.613384
2580000000 0.99967456 -58.841419
2590000000 0.99967891 -59.066936
2600000000 0.99970293 -59.295422
2610000000 0.99974936 -59.521355
2620000000 0.9997136 -59.750542
2630000000 0.99966156 -59.979294
2640000000 0.99962407 -60.208172
2650000000 0.99965513 -60.436615
2660000000 0.99965221 -60.663799
2670000000 0.99962008 -60.891232
2680000000 0.9996177 -61.120735
2690000000 0.99957567 -61.347046
2700000000 0.99956483 -61.572044
2710000000 0.99959445 -61.800175
2720000000 0.99958611 -62.030201
2730000000 0.99962556 -62.256493
2740000000 0.99964565 -62.48637
2750000000 0.99966979 -62.71447
2760000000 0.99962449 -62.942913
2770000000 0.99957144 -63.17149
2780000000 0.99960542 -63.400452
2790000000 0.99962413 -63.626404
2800000000 0.99959588 -63.853943
2810000000 0.99956924 -64.086174
2820000000 0.99958587 -64.309792
2830000000 0.99959207 -64.537926
2840000000 0.99959576 -64.76767
2850000000 0.99958277 -64.995399
2860000000 0.99964255 -65.22361
2870000000 0.99961746 -65.450722
2880000000 0.99960428 -65.680038
2890000000 0.9995997 -65.909981
2900000000 0.99961495 -66.13678
2910000000 0.99957365 -66.366081
2920000000 0.99950343 -66.592567
2930000000 0.99949807 -66.821411
2940000000 0.99950528 -67.046898
2950000000 0.99949867 -67.273384
2960000000 0.99952197 -67.502518
2970000000 0.99956739 -67.727524
2980000000 0.99958152 -67.954353
2990000000 0.99958652 -68.18486
3000000000 0.99958581 -68.413467
3010000000 0.99959666 -68.644585
3020000000 0.99966204 -68.867905
3030000000 0.99952793 -69.101028
3040000000 0.99953294 -69.328232
3050000000 0.9995231 -69.557953
3060000000 0.99948829 -69.782768
3070000000 0.99945307 -70.009628
3080000000 0.99943924 -70.234772
3090000000 0.9994424 -70.465546
3100000000 0.99946737 -70.690895
3110000000 0.99953651 -70.917587
3120000000 0.99954361 -71.147362
3130000000 0.99954134 -71.377411
3140000000 0.99953783 -71.608505
3150000000 0.99951571 -71.836082
3160000000 0.99947393 -72.064781
3170000000 0.99941635 -72.294708
3180000000 0.9994114 -72.521858
3190000000 0.99942565 -72.750374
3200000000 0.99944091 -72.975624
3210000000 0.99942791 -73.202354
3220000000 0.99939495 -73.429199
3230000000 0.99943238 -73.659203
3240000000 0.99940395 -73.882927
3250000000 0.99939018 -74.11367
3260000000 0.99939215 -74.341835
3270000000 0.99943376 -74.570976
3280000000 0.99940914 -74.79985
3290000000 0.99941987 -75.025558
3300000000 0.99938828 -75.254036
3310000000 0.99937922 -75.481758
3320000000 0.99937254 -75.710571
3330000000 0.9993549 -75.936867
3340000000 0.99935597 -76.165039
3350000000 0.99936837 -76.39257
3360000000 0.9993493 -76.619171
3370000000 0.99938124 -76.847183
3380000000 0.99937123 -77.074959
3390000000 0.99939662 -77.302368
3400000000 0.99935693 -77.532158
3410000000 0.99935818 -77.76136
3420000000 0.99930167 -77.989914
3430000000 0.99933112 -78.215714
3440000000 0.9992727 -78.44368
3450000000 0.99934745 -78.675758
3460000000 0.99932891 -78.902512
3470000000 0.99934864 -79.130302
3480000000 0.99932003 -79.356895
3490000000 0.99929345 -79.584602
3500000000 0.99931008 -79.813248
3510000000 0.99927962 -80.041458
3520000000 0.99923557 -80.267967
3530000000 0.99923253 -80.496223
3540000000 0.99926811 -80.725792
3550000000 0.99924791 -80.95504
3560000000 0.99926335 -81.178833
3570000000 0.99925101 -81.406677
3580000000 0.99921435 -81.63176
3590000000 0.99921966 -81.860138
3600000000 0.99925369 -82.089203
3610000000 0.99930543 -82.31517
3620000000 0.99934584 -82.544319
3630000000 0.9993062 -82.77636
3640000000 0.99930102 -83.006813
3650000000 0.99928206 -83.235573
3660000000 0.99922681 -83.461555
3670000000 0.99916655 -83.69281
3680000000 0.99914259 -83.918495
3690000000 0.9991377 -84.146019
3700000000 0.9991039 -84.372078
3710000000 0.99913341 -84.600609
3720000000 0.99910939 -84.828529
3730000000 0.99912417 -85.053345
3740000000 0.99914569 -85.282204
3750000000 0.99917132 -85.510735
3760000000 0.99914283 -85.739708
3770000000 0.99914211 -85.965286
3780000000 0.99913317 -86.195763
3790000000 0.99907756 -86.422928
3800000000 0.99907142 -86.651367
3810000000 0.99900258 -86.878128
3820000000 0.99900949 -87.105728
3830000000 0.99903148 -87.334023
3840000000 0.99904352 -87.5616
3850000000 0.99908555 -87.787483
3860000000 0.99909669 -88.016678
3870000000 0.99902731 -88.24395
3880000000 0.99910635 -88.472351
3890000000 0.9991169 -88.70166
3900000000 0.99909317 -88.929916
3910000000 0.99909556 -89.157326
3920000000 0.99902683 -89.387573
3930000000 0.99903989 -89.613869
3940000000 0.99904621 -89.843178
3950000000 0.99904245 -90.069496
3960000000 0.99902284 -90.299973
3970000000 0.99904448 -90.526573
3980000000 0.99899018 -90.755638
3990000000 0.9990105 -90.9841
4000000000 0.99895173 -91.211159
4010000000 0.99898505 -91.438744
4020000000 0.99899334 -91.669197
4030000000 0.99896532 -91.896355
4040000000 0.99889243 -92.122993
4050000000 0.99890566 -92.349617
4060000000 0.99891484 -92.576729
4070000000 0.99888152 -92.804825
4080000000 0.9989298 -93.030724
4090000000 0.99890214 -93.259468
4100000000 0.99888265 -93.486969
4110000000 0.99887902 -93.714523
4120000000 0.99890399 -93.941681
4130000000 0.99896377 -94.167877
4140000000 0.99893534 -94.400002
4150000000 0.99891561 -94.630135
4160000000 0.99891615 -94.859818
4170000000 0.99887985 -95.087509
4180000000 0.99886423 -95.312187
4190000000 0.99882019 -95.541771
4200000000 0.99888122 -95.766769
4210000000 0.99889004 -95.992592
4220000000 0.99886799 -96.219246
4230000000 0.99893677 -96.445137
4240000000 0.9989472 -96.674751
4250000000 0.99894315 -96.903656
4260000000 0.99892819 -97.131927
4270000000 0.99893016 -97.361954
4280000000 0.99894422 -97.591927
4290000000 0.99891853 -97.817131
4300000000 0.99888057 -98.047432
4310000000 0.99888211 -98.274979
4320000000 0.99885809 -98.504349
4330000000 0.99881124 -98.731888
4340000000 0.99882138 -98.958611
4350000000 0.99889982 -99.185959
4360000000 0.99888349 -99.414551
4370000000 0.99883246 -99.647301
4380000000 0.99884069 -99.874008
4390000000 0.9988935 -100.10255
4400000000 0.99884599 -100.33238
4410000000 0.99884379 -100.56258
4420000000 0.99878818 -100.78947
4430000000 0.9987973 -101.01882
4440000000 0.99878538 -101.248
4450000000 0.99876475 -101.47485
4460000000 0.99872512 -101.70219
4470000000 0.99872279 -101.92747
4480000000 0.99872202 -102.15385
4490000000 0.9987368 -102.38115
4500000000 0.9987188 -102.60926
4510000000 0.99870992 -102.83766
4520000000 0.99869996 -103.066
4530000000 0.99871325 -103.29309
4540000000 0.99872977 -103.52202
4550000000 0.99867493 -103.75117
4560000000 0.99866045 -103.9789
4570000000 0.99863017 -104.20807
4580000000 0.99868345 -104.43595
4590000000 0.99859619 -104.66109
4600000000 0.99863201 -104.89263
4610000000 0.99863815 -105.11963
4620000000 0.99860662 -105.34822
4630000000 0.99864745 -105.57539
4640000000 0.99861073 -105.804
4650000000 0.99866658 -106.03249
4660000000 0.99864566 -106.26183
4670000000 0.99865776 -106.48975
4680000000 0.99862194 -106.7177
4690000000 0.99857193 -106.94675
4700000000 0.99854857 -107.17484
4710000000 0.99854851 -107.40353
4720000000 0.99853075 -107.633
4730000000 0.99852246 -107.85979
4740000000 0.99855137 -108.08577
4750000000 0.99859488 -108.31512
4760000000 0.99855977 -108.54254
4770000000 0.99854761 -108.77294
4780000000 0.99853212 -109.0026
4790000000 0.99851561 -109.23129
4800000000 0.99845088 -109.45887
4810000000 0.99843037 -109.6858
4820000000 0.99840117 -109.91226
4830000000 0.99842978 -110.14047
4840000000 0.99842584 -110.37007
4850000000 0.99841225 -110.59512
4860000000 0.99844015 -110.82065
4870000000 0.99841428 -111.04776
4880000000 0.99847549 -111.2782
4890000000 0.99842042 -111.50485
4900000000 0.99850029 -111.73368
4910000000 0.99844384 -111.96389
4920000000 0.99848306 -112.19231
4930000000 0.99847776 -112.42016
4940000000 0.99843055 -112.64993
4950000000 0.99836701 -112.87805
4960000000 0.99842149 -113.10511
4970000000 0.99841344 -113.33069
4980000000 0.99839985 -113.55705
4990000000 0.99836457 -113.78609
5000000000 0.99834949 -114.01304
5010000000 0.99837619 -114.24217
5020000000 0.99838996 -114.47067
5030000000 0.99841696 -114.69829
5040000000 0.99842232 -114.9283
5050000000 0.99845833 -115.15664
5060000000 0.99836606 -115.38663
5070000000 0.99840164 -115.61635
5080000000 0.99836576 -115.84563
5090000000 0.99835306 -116.07475
5100000000 0.99831283 -116.30133
5110000000 0.99832821 -116.53007
5120000000 0.99830461 -116.75472
5130000000 0.99827963 -116.98457
5140000000 0.99830627 -117.21158
5150000000 0.9983083 -117.44053
5160000000 0.99831074 -117.6684
5170000000 0.9983303 -117.8968
5180000000 0.99833149 -118.12701
5190000000 0.99826932 -118.35356
5200000000 0.99833024 -118.58146
5210000000 0.9982667 -118.80857
5220000000 0.99825537 -119.03781
5230000000 0.99821597 -119.26592
5240000000 0.99825221 -119.49377
5250000000 0.99823636 -119.72038
5260000000 0.99822277 -119.94898
5270000000 0.99823886 -120.17883
5280000000 0.99821919 -120.40699
5290000000 0.99824375 -120.63491
5300000000 0.99823874 -120.86337
5310000000 0.9981972 -121.09076
5320000000 0.99815971 -121.32173
5330000000 0.9981997 -121.547
5340000000 0.99811655 -121.77458
5350000000 0.99811774 -122.00362
5360000000 0.99811476 -122.2287
5370000000 0.99813133 -122.45484
5380000000 0.99815214 -122.68495
5390000000 0.99819243 -122.91259
5400000000 0.99822879 -123.1417
5410000000 0.99815422 -123.37169
5420000000 0.99821824 -123.59975
5430000000 0.99822164 -123.83041
5440000000 0.99817878 -124.05893
5450000000 0.99811703 -124.28692
5460000000 0.99810201 -124.51685
5470000000 0.99808753 -124.74422
5480000000 0.99807721 -124.97272
5490000000 0.99798787 -125.2004
5500000000 0.9980275 -125.42649
5510000000 0.99805212 -125.6535
5520000000 0.99798572 -125.88223
5530000000 0.99800777 -126.11055
5540000000 0.99801427 -126.34023
5550000000 0.99797225 -126.56857
5560000000 0.99795425 -126.79633
5570000000 0.99798757 -127.0237
5580000000 0.99795556 -127.25105
5590000000 0.99788791 -127.47987
5600000000 0.99788123 -127.70472
5610000000 0.99788356 -127.92991
5620000000 0.99788862 -128.15855
5630000000 0.99787265 -128.38689
5640000000 0.99788141 -128.614
5650000000 0.99787939 -128.84001
5660000000 0.99792171 -129.0708
5670000000 0.99793965 -129.30046
5680000000 0.99792618 -129.52676
5690000000 0.99788207 -129.75723
5700000000 0.99789578 -129.98669
5710000000 0.99787033 -130.21594
5720000000 0.99786121 -130.4447
5730000000 0.99780893 -130.67041
5740000000 0.99781048 -130.89781
5750000000 0.99783564 -131.12581
5760000000 0.99783444 -131.35358
5770000000 0.99784261 -131.58211
5780000000 0.99785918 -131.8116
5790000000 0.99784505 -132.03827
5800000000 0.99782413 -132.26945
5810000000 0.99779642 -132.49902
5820000000 0.99778664 -132.72452
5830000000 0.99778777 -132.95332
5840000000 0.99777383 -133.18126
5850000000 0.99771971 -133.40994
5860000000 0.99771672 -133.63731
5870000000 0.99773079 -133.8672
5880000000 0.99771869 -134.09267
5890000000 0.99769884 -134.32298
5900000000 0.99768394 -134.54778
5910000000 0.99769491 -134.77371
5920000000 0.99763983 -135.00493
5930000000 0.99765861 -135.23135
5940000000 0.99766332 -135.45885
5950000000 0.99763244 -135.68588
5960000000 0.99766099 -135.91434
5970000000 0.9976939 -136.14296
5980000000 0.99769682 -136.37102
5990000000 0.9976564 -136.60033
6000000000 0.99770063 -136.82739
6010000000 0.99768907 -137.05634
6020000000 0.99767768 -137.28294
6030000000 0.99769205 -137.51112
6040000000 0.99765706 -137.7373
6050000000 0.99763846 -137.97269
6060000000 0.99764138 -138.20985
6070000000 0.99761248 -138.42952
6080000000 0.99754119 -138.65547
6090000000 0.99757314 -138.88463
6100000000 0.99757016 -139.11127
6110000000 0.99752849 -139.33749
