!Keysight Technologies,N5242A,MY53222596,A.10.47.06
!Date: Thursday, November 09, 2017 12:25:34
!Correction: S33(Full 2 Port(1,3)) 
!S1P File: Measurement: S33:
# Hz S  MA   R 50
10000000 0.9999094 179.71025
20000000 0.99949008 179.4955
30000000 0.99941063 179.27536
40000000 0.99941826 179.04489
50000000 0.99935776 178.81306
60000000 0.99927616 178.5791
70000000 0.99919069 178.34793
80000000 0.99916315 178.11717
90000000 0.99915332 177.88654
100000000 0.99909449 177.65501
110000000 0.99904966 177.42325
120000000 0.99901009 177.19165
130000000 0.99895632 176.96045
140000000 0.99891526 176.72957
150000000 0.99883813 176.49837
160000000 0.99879491 176.26906
170000000 0.99876171 176.03751
180000000 0.99874723 175.80737
190000000 0.99870569 175.57596
200000000 0.99870217 175.34357
210000000 0.99866509 175.1124
220000000 0.99863708 174.87834
230000000 0.99859804 174.65005
240000000 0.99856442 174.42061
250000000 0.99855369 174.18903
260000000 0.99852675 173.95784
270000000 0.99851173 173.73003
280000000 0.99848545 173.49736
290000000 0.9984355 173.26625
300000000 0.99841434 173.036
310000000 0.99839371 172.80659
320000000 0.99835712 172.57809
330000000 0.9983567 172.34676
340000000 0.99832731 172.11537
350000000 0.99831253 171.88521
360000000 0.99824542 171.65356
370000000 0.99827796 171.42049
380000000 0.99821395 171.18657
390000000 0.99817926 170.95615
400000000 0.99813855 170.72493
410000000 0.99811077 170.49461
420000000 0.9980334 170.26462
430000000 0.99805456 170.03171
440000000 0.99804831 169.80081
450000000 0.9980002 169.56969
460000000 0.99802017 169.33875
470000000 0.99798256 169.10834
480000000 0.99794626 168.87828
490000000 0.9979279 168.65031
500000000 0.99797362 168.42149
510000000 0.99795043 168.19035
520000000 0.997926 167.96193
530000000 0.99790424 167.7328
540000000 0.99781966 167.5074
550000000 0.9977572 167.28146
560000000 0.99775058 167.0551
570000000 0.99779278 166.8284
580000000 0.9978236 166.59628
590000000 0.99782234 166.36548
600000000 0.99778688 166.13295
610000000 0.99774545 165.9017
620000000 0.99769026 165.66846
630000000 0.99764788 165.43816
640000000 0.99762583 165.20776
650000000 0.99761742 164.97711
660000000 0.99762529 164.74628
670000000 0.99764347 164.51149
680000000 0.99760449 164.27982
690000000 0.99759805 164.04796
700000000 0.99754459 163.81691
710000000 0.99753469 163.58644
720000000 0.99751759 163.35623
730000000 0.99753523 163.12782
740000000 0.99751318 162.90039
750000000 0.99746633 162.67139
760000000 0.99744725 162.44389
770000000 0.99738896 162.21727
780000000 0.9974153 161.99004
790000000 0.99739718 161.7612
800000000 0.99740386 161.53325
810000000 0.99740773 161.30327
820000000 0.99733335 161.07277
830000000 0.9972744 160.84291
840000000 0.99724847 160.61372
850000000 0.99725384 160.38484
860000000 0.99723047 160.15544
870000000 0.99723947 159.92302
880000000 0.99723661 159.69279
890000000 0.99726331 159.46008
900000000 0.99725109 159.22615
910000000 0.99726748 158.99629
920000000 0.99724597 158.76445
930000000 0.99724221 158.53441
940000000 0.99721736 158.30476
950000000 0.99717599 158.07483
960000000 0.99716723 157.84647
970000000 0.99714011 157.61566
980000000 0.99715137 157.39008
990000000 0.99714476 157.16014
1000000000 0.99710059 156.93161
1010000000 0.99705887 156.70601
1020000000 0.99704593 156.47592
1030000000 0.99706209 156.25038
1040000000 0.99703854 156.01863
1050000000 0.99701387 155.78822
1060000000 0.99700248 155.55664
1070000000 0.99694389 155.32753
1080000000 0.99695981 155.0972
1090000000 0.99687314 154.86678
1100000000 0.99688667 154.63641
1110000000 0.99694061 154.4046
1120000000 0.99694985 154.17667
1130000000 0.99689966 153.94423
1140000000 0.99696308 153.71304
1150000000 0.99696034 153.48201
1160000000 0.99694711 153.25093
1170000000 0.99694109 153.02191
1180000000 0.99685585 152.79424
1190000000 0.99684352 152.56479
1200000000 0.99681252 152.33647
1210000000 0.99683946 152.11137
1220000000 0.99679631 151.88324
1230000000 0.99675208 151.65543
1240000000 0.99675 151.4299
1250000000 0.99680293 151.19875
1260000000 0.99679846 150.96848
1270000000 0.99680769 150.73857
1280000000 0.99671388 150.50935
1290000000 0.99674606 150.27614
1300000000 0.99668598 150.04935
1310000000 0.99663341 149.81921
1320000000 0.99665159 149.59023
1330000000 0.99666929 149.36136
1340000000 0.99665684 149.13052
1350000000 0.99669659 148.90166
1360000000 0.99669802 148.67001
1370000000 0.99670076 148.43768
1380000000 0.99668926 148.20784
1390000000 0.99666238 147.97649
1400000000 0.99662828 147.74835
1410000000 0.99655497 147.52124
1420000000 0.99657243 147.29173
1430000000 0.99653625 147.06456
1440000000 0.99655908 146.83441
1450000000 0.99651462 146.60387
1460000000 0.9965319 146.37286
1470000000 0.99651778 146.14297
1480000000 0.99651605 145.91179
1490000000 0.99651974 145.68382
1500000000 0.99641776 145.4529
1510000000 0.99644375 145.22444
1520000000 0.99640191 144.99548
1530000000 0.99641263 144.76755
1540000000 0.99642438 144.53987
1550000000 0.99645841 144.31152
1560000000 0.996427 144.08224
1570000000 0.9964534 143.85347
1580000000 0.99646127 143.62279
1590000000 0.99647224 143.39127
1600000000 0.99640745 143.1613
1610000000 0.99638939 142.9315
1620000000 0.99638528 142.70522
1630000000 0.99631655 142.4762
1640000000 0.99635279 142.24692
1650000000 0.996319 142.01559
1660000000 0.99635988 141.78784
1670000000 0.99632835 141.55753
1680000000 0.99634349 141.32632
1690000000 0.99633628 141.09685
1700000000 0.99631083 140.86649
1710000000 0.99627882 140.63802
1720000000 0.99627715 140.40906
1730000000 0.99621826 140.18095
1740000000 0.9962585 139.95422
1750000000 0.99620867 139.72424
1760000000 0.99625075 139.49884
1770000000 0.99624383 139.26976
1780000000 0.99625009 139.04179
1790000000 0.99628198 138.81268
1800000000 0.99627936 138.58522
1810000000 0.99625707 138.35487
1820000000 0.99628597 138.12259
1830000000 0.9962284 137.89174
1840000000 0.99617934 137.66193
1850000000 0.99616152 137.43196
1860000000 0.99608904 137.19872
1870000000 0.99607337 136.96848
1880000000 0.99599957 136.73985
1890000000 0.99602169 136.50905
1900000000 0.99604946 136.27663
1910000000 0.99602813 136.04526
1920000000 0.99599731 135.81387
1930000000 0.995978 135.58688
1940000000 0.99598777 135.35873
1950000000 0.99601924 135.13141
1960000000 0.99603343 134.90437
1970000000 0.9960174 134.67755
1980000000 0.99600703 134.45047
1990000000 0.99600637 134.22438
2000000000 0.99597991 133.99948
2010000000 0.9959954 133.77348
2020000000 0.9959901 133.54871
2030000000 0.99600917 133.32045
2040000000 0.99606192 133.09084
2050000000 0.99607843 132.86104
2060000000 0.99607563 132.62752
2070000000 0.9960463 132.39642
2080000000 0.99598408 132.16298
2090000000 0.9959355 131.92957
2100000000 0.99588108 131.70294
2110000000 0.9958992 131.46964
2120000000 0.99593753 131.24252
2130000000 0.99593014 131.01074
2140000000 0.99595433 130.78011
2150000000 0.99596459 130.55
2160000000 0.99593961 130.31792
2170000000 0.99590021 130.08916
2180000000 0.99585372 129.86053
2190000000 0.9958331 129.63431
2200000000 0.99586213 129.40857
2210000000 0.995924 129.18063
2220000000 0.99591029 128.9545
2230000000 0.99591833 128.72708
2240000000 0.99592727 128.49542
2250000000 0.99586517 128.26764
2260000000 0.99583304 128.03709
2270000000 0.99583811 127.80399
2280000000 0.99582726 127.57577
2290000000 0.99575949 127.34213
2300000000 0.99572778 127.11157
2310000000 0.99571383 126.87988
2320000000 0.99570048 126.65023
2330000000 0.99568063 126.41977
2340000000 0.99564618 126.18963
2350000000 0.99566841 125.95882
2360000000 0.99573028 125.73231
2370000000 0.99572128 125.50205
2380000000 0.99570954 125.27324
2390000000 0.99569714 125.0463
2400000000 0.99565279 124.82036
2410000000 0.99565488 124.59445
2420000000 0.99562114 124.36932
2430000000 0.99566448 124.14477
2440000000 0.99568677 123.91775
2450000000 0.99573207 123.69111
2460000000 0.99572438 123.45873
2470000000 0.99574584 123.22504
2480000000 0.99566805 122.99303
2490000000 0.99564254 122.76081
2500000000 0.99554992 122.53193
2510000000 0.99553448 122.3004
2520000000 0.99553776 122.07372
2530000000 0.99557567 121.84254
2540000000 0.99566853 121.61195
2550000000 0.99569798 121.38017
2560000000 0.99570954 121.14765
2570000000 0.99566877 120.91521
2580000000 0.99561244 120.68998
2590000000 0.99560535 120.46488
2600000000 0.99559283 120.24046
2610000000 0.99560666 120.01965
2620000000 0.99567324 119.79375
2630000000 0.9957546 119.56837
2640000000 0.99577105 119.33933
2650000000 0.99576414 119.11086
2660000000 0.99569786 118.87952
2670000000 0.99567789 118.65188
2680000000 0.99562776 118.42327
2690000000 0.99555182 118.19334
2700000000 0.99552929 117.96265
2710000000 0.99552095 117.73013
2720000000 0.99548912 117.49529
2730000000 0.99546045 117.26678
2740000000 0.99545771 117.03213
2750000000 0.99546617 116.79932
2760000000 0.99544019 116.57017
2770000000 0.99547535 116.34
2780000000 0.99544436 116.10889
2790000000 0.99547875 115.8796
2800000000 0.99549818 115.65181
2810000000 0.99549562 115.4248
2820000000 0.99546409 115.20159
2830000000 0.99546778 114.9772
2840000000 0.99547023 114.75483
2850000000 0.99553376 114.52789
2860000000 0.99556065 114.30228
2870000000 0.99556679 114.0741
2880000000 0.9955551 113.84687
2890000000 0.99552137 113.61662
2900000000 0.99550015 113.38686
2910000000 0.99546754 113.15776
2920000000 0.99539846 112.92724
2930000000 0.99539787 112.69721
2940000000 0.99541312 112.46603
2950000000 0.99541962 112.23346
2960000000 0.99542969 112.00025
2970000000 0.99539292 111.76916
2980000000 0.99538201 111.53794
2990000000 0.99542099 111.30677
3000000000 0.9954071 111.07778
3010000000 0.99538398 110.8474
3020000000 0.99547106 110.61848
3030000000 0.99543995 110.39378
3040000000 0.99540085 110.16804
3050000000 0.995453 109.93916
3060000000 0.99550909 109.71402
3070000000 0.99546397 109.49187
3080000000 0.99544561 109.26433
3090000000 0.99545622 109.0353
3100000000 0.99549377 108.80892
3110000000 0.99538481 108.57909
3120000000 0.99540848 108.34991
3130000000 0.99540675 108.1207
3140000000 0.99535602 107.89335
3150000000 0.99529457 107.6656
3160000000 0.99538022 107.43655
3170000000 0.99535698 107.20819
3180000000 0.99538022 106.97704
3190000000 0.99541575 106.74902
3200000000 0.99536163 106.5189
3210000000 0.99532098 106.29212
3220000000 0.99524289 106.06199
3230000000 0.99536878 105.83568
3240000000 0.99531132 105.60996
3250000000 0.99538463 105.38026
3260000000 0.99536705 105.1524
3270000000 0.99537784 104.92065
3280000000 0.99541098 104.69411
3290000000 0.9953568 104.46043
3300000000 0.99528271 104.23328
3310000000 0.99533677 104.00417
3320000000 0.99534529 103.77456
3330000000 0.99532127 103.54472
3340000000 0.99534762 103.31352
3350000000 0.99524206 103.0807
3360000000 0.99526364 102.84914
3370000000 0.9952085 102.61791
3380000000 0.99513787 102.39507
3390000000 0.99515617 102.16656
3400000000 0.9952231 101.94115
3410000000 0.99526387 101.71551
3420000000 0.99531829 101.48787
3430000000 0.99538857 101.26109
3440000000 0.99538922 101.03252
3450000000 0.99537772 100.80465
3460000000 0.99535573 100.57548
3470000000 0.99531382 100.34953
3480000000 0.9952116 100.12438
3490000000 0.99528146 99.898369
3500000000 0.99529082 99.67205
3510000000 0.99533015 99.443153
3520000000 0.9953382 99.210373
3530000000 0.99532974 98.981735
3540000000 0.99532843 98.751549
3550000000 0.99532437 98.522209
3560000000 0.99528164 98.287453
3570000000 0.99527806 98.058441
3580000000 0.99525434 97.827942
3590000000 0.99521774 97.597076
3600000000 0.99522692 97.369331
3610000000 0.99520737 97.142418
3620000000 0.99522215 96.916527
3630000000 0.99521136 96.690689
3640000000 0.99518412 96.466064
3650000000 0.99522966 96.240829
3660000000 0.99524122 96.015984
3670000000 0.99524295 95.789223
3680000000 0.99529421 95.566902
3690000000 0.99529958 95.338348
3700000000 0.9953422 95.112183
3710000000 0.99529541 94.884216
3720000000 0.99531293 94.656464
3730000000 0.99531883 94.424751
3740000000 0.99526477 94.19677
3750000000 0.99525428 93.963623
3760000000 0.99527597 93.734642
3770000000 0.99526173 93.504066
3780000000 0.99523354 93.274345
3790000000 0.99528348 93.042656
3800000000 0.99521214 92.812157
3810000000 0.99517578 92.581665
3820000000 0.9951641 92.352005
3830000000 0.9951027 92.125725
3840000000 0.9951582 91.901726
3850000000 0.99518186 91.67585
3860000000 0.99523425 91.450378
3870000000 0.99532509 91.223183
3880000000 0.99530828 90.99369
3890000000 0.99534577 90.760986
3900000000 0.99530274 90.534348
3910000000 0.99525589 90.306564
3920000000 0.99524438 90.079033
3930000000 0.99521643 89.854012
3940000000 0.99522924 89.631477
3950000000 0.99529558 89.402306
3960000000 0.99532264 89.167809
3970000000 0.99533951 88.935959
3980000000 0.99526834 88.702789
3990000000 0.99525696 88.471848
4000000000 0.99517769 88.239914
4010000000 0.9951281 88.015862
4020000000 0.99512845 87.786598
4030000000 0.99516237 87.562569
4040000000 0.99516582 87.334969
4050000000 0.9952212 87.106209
4060000000 0.9952637 86.881783
4070000000 0.99522173 86.655762
4080000000 0.99528503 86.431717
4090000000 0.99525058 86.209358
4100000000 0.99529564 85.984215
4110000000 0.99533218 85.755928
4120000000 0.99539757 85.526749
4130000000 0.99536884 85.296021
4140000000 0.99537605 85.065666
4150000000 0.99536306 84.833549
4160000000 0.99531823 84.602928
4170000000 0.99523395 84.375427
4180000000 0.99521142 84.147697
4190000000 0.99519783 83.91787
4200000000 0.99519777 83.689743
4210000000 0.99529243 83.459297
4220000000 0.99530739 83.229576
4230000000 0.99533582 82.997581
4240000000 0.99529052 82.766594
4250000000 0.99524856 82.537315
4260000000 0.99524564 82.307129
4270000000 0.99522406 82.081841
4280000000 0.99519634 81.856544
4290000000 0.99519622 81.631348
4300000000 0.99518263 81.412865
4310000000 0.99518406 81.184799
4320000000 0.99524093 80.961395
4330000000 0.99527115 80.735168
4340000000 0.99532491 80.508011
4350000000 0.99529463 80.278458
4360000000 0.9952482 80.045723
4370000000 0.99523419 79.81424
4380000000 0.99522054 79.58448
4390000000 0.99517101 79.35778
4400000000 0.9951328 79.128716
4410000000 0.99514771 78.901215
4420000000 0.99510711 78.669357
4430000000 0.99514717 78.438133
4440000000 0.99507099 78.206161
4450000000 0.99505287 77.976448
4460000000 0.99501461 77.751183
4470000000 0.9950217 77.523216
4480000000 0.99507028 77.298981
4490000000 0.99515063 77.070702
4500000000 0.99518639 76.843643
4510000000 0.99529296 76.608795
4520000000 0.99532616 76.375916
4530000000 0.99526745 76.14283
4540000000 0.9952352 75.915245
4550000000 0.99520677 75.687576
4560000000 0.99514771 75.45842
4570000000 0.99519932 75.233826
4580000000 0.9952383 75.00766
4590000000 0.9952513 74.778816
4600000000 0.99525827 74.549995
4610000000 0.99528867 74.323814
4620000000 0.99520648 74.097084
4630000000 0.99526125 73.874268
4640000000 0.99521613 73.647507
4650000000 0.99520326 73.42408
4660000000 0.99521697 73.198105
4670000000 0.99524492 72.97348
4680000000 0.99522084 72.745544
4690000000 0.9951781 72.517181
4700000000 0.99512404 72.290947
4710000000 0.9951371 72.067635
4720000000 0.99513507 71.840759
4730000000 0.99513865 71.617004
4740000000 0.99525803 71.389435
4750000000 0.99531519 71.158035
4760000000 0.99531591 70.92617
4770000000 0.99534845 70.692337
4780000000 0.99532902 70.458969
4790000000 0.99527228 70.226196
4800000000 0.99527347 70.000023
4810000000 0.99529004 69.770752
4820000000 0.99526078 69.544518
4830000000 0.99526906 69.316551
4840000000 0.99525374 69.090919
4850000000 0.99520361 68.864685
4860000000 0.99521774 68.640434
4870000000 0.99519497 68.414612
4880000000 0.99520016 68.188385
4890000000 0.99521101 67.965775
4900000000 0.99517554 67.739639
4910000000 0.99517262 67.514076
4920000000 0.99520046 67.285393
4930000000 0.99516702 67.060165
4940000000 0.99515569 66.833374
4950000000 0.99521255 66.603439
4960000000 0.99524558 66.374718
4970000000 0.99532497 66.141312
4980000000 0.99534309 65.907928
4990000000 0.99530751 65.673866
5000000000 0.99526429 65.44075
5010000000 0.99522501 65.21006
5020000000 0.99523497 64.983139
5030000000 0.995233 64.755577
5040000000 0.99527758 64.528229
5050000000 0.99538136 64.300598
5060000000 0.99540544 64.069191
5070000000 0.99542361 63.837242
5080000000 0.99535793 63.606747
5090000000 0.99526459 63.377853
5100000000 0.99518061 63.155098
5110000000 0.99513298 62.933979
5120000000 0.99516636 62.714764
5130000000 0.99519187 62.491394
5140000000 0.99529308 62.268719
5150000000 0.99537408 62.039085
5160000000 0.99539322 61.808273
5170000000 0.99540025 61.574608
5180000000 0.99536616 61.344292
5190000000 0.99531716 61.114872
5200000000 0.99528265 60.888329
5210000000 0.99522531 60.661705
5220000000 0.9952262 60.432983
5230000000 0.99521786 60.203678
5240000000 0.99519652 59.976761
5250000000 0.99520183 59.747776
5260000000 0.99515468 59.523979
5270000000 0.99521768 59.295414
5280000000 0.99532229 59.068604
5290000000 0.99534744 58.837818
5300000000 0.99531889 58.607025
5310000000 0.99530536 58.378708
5320000000 0.99529999 58.148857
5330000000 0.99517274 57.922676
5340000000 0.99516517 57.698845
5350000000 0.99516839 57.477394
5360000000 0.99518031 57.252808
5370000000 0.99523288 57.027225
5380000000 0.99528599 56.797146
5390000000 0.99536854 56.565678
5400000000 0.99532259 56.333855
5410000000 0.9952485 56.106003
5420000000 0.99526173 55.878551
5430000000 0.99521941 55.647404
5440000000 0.99522173 55.417557
5450000000 0.99523562 55.188385
5460000000 0.99529624 54.957275
5470000000 0.99518073 54.725334
5480000000 0.99507248 54.497654
5490000000 0.99507272 54.272778
5500000000 0.99501312 54.051083
5510000000 0.99506193 53.827953
5520000000 0.99514955 53.603939
5530000000 0.99527436 53.375664
5540000000 0.99536794 53.144379
5550000000 0.99536103 52.911663
5560000000 0.99528122 52.678917
5570000000 0.99522561 52.451855
5580000000 0.99510616 52.228928
5590000000 0.99513602 52.011234
5600000000 0.99518168 51.790504
5610000000 0.99533564 51.56303
5620000000 0.99550653 51.333351
5630000000 0.99555945 51.098522
5640000000 0.99555534 50.86137
5650000000 0.99552852 50.628166
5660000000 0.99540401 50.398048
5670000000 0.9953723 50.170292
5680000000 0.99531925 49.943558
5690000000 0.99531126 49.716644
5700000000 0.99538106 49.490742
5710000000 0.9954052 49.262878
5720000000 0.995435 49.035362
5730000000 0.99535578 48.806313
5740000000 0.99532592 48.582142
5750000000 0.99535787 48.357006
5760000000 0.99533838 48.132782
5770000000 0.99540305 47.909096
5780000000 0.99539489 47.68391
5790000000 0.99536288 47.458447
5800000000 0.99534297 47.237511
5810000000 0.99534291 47.012161
5820000000 0.99533498 46.786716
5830000000 0.99541157 46.559502
5840000000 0.9953925 46.330433
5850000000 0.99540591 46.097431
5860000000 0.99545848 45.865101
5870000000 0.9954139 45.629547
5880000000 0.99533582 45.396496
5890000000 0.99529505 45.163864
5900000000 0.99529225 44.933807
5910000000 0.99532253 44.703823
5920000000 0.99537665 44.472652
5930000000 0.99544811 44.240269
5940000000 0.99543381 44.008335
5950000000 0.99544901 43.777512
5960000000 0.99541128 43.550369
5970000000 0.99534559 43.326672
5980000000 0.99532127 43.107903
5990000000 0.99539036 42.887806
6000000000 0.99545676 42.666634
6010000000 0.99552453 42.439774
6020000000 0.99557704 42.215614
6030000000 0.99554753 41.987003
6040000000 0.99551415 41.762783
6050000000 0.9954353 41.532555
6060000000 0.9953863 41.311459
6070000000 0.99544632 41.092789
6080000000 0.99542004 40.866661
6090000000 0.99543023 40.633308
6100000000 0.99550587 40.398888
6110000000 0.9954955 40.163551
6120000000 0.99542612 39.93037
6130000000 0.99539852 39.698872
6140000000 0.99544156 39.466381
6150000000 0.99542958 39.235241
6160000000 0.99546415 39.002174
6170000000 0.99544656 38.7696
6180000000 0.99546671 38.5383
6190000000 0.99549633 38.306347
6200000000 0.99537057 38.082104
6210000000 0.99537104 37.85791
6220000000 0.99537766 37.636738
6230000000 0.99538398 37.414143
6240000000 0.99545312 37.192581
6250000000 0.9954682 36.968666
6260000000 0.99551618 36.741261
6270000000 0.99542481 36.517223
