!Keysight Technologies,N5242A,MY53222596,A.10.47.06
!Date: Thursday, November 09, 2017 12:00:17
!Correction: S11(Full 2 Port(1,3)) 
!S1P File: Measurement: S11:
# Hz S  MA   R 50
10000000 0.99952942 179.74327
20000000 0.9995321 179.51225
30000000 0.99940479 179.27925
40000000 0.99934167 179.05057
50000000 0.99926484 178.81754
60000000 0.99919796 178.58476
70000000 0.99914116 178.35208
80000000 0.99909949 178.12112
90000000 0.99907017 177.88835
100000000 0.99900156 177.65694
110000000 0.99892521 177.42534
120000000 0.9988851 177.19356
130000000 0.99884146 176.96161
140000000 0.99878263 176.73112
150000000 0.99876404 176.4993
160000000 0.99876112 176.26846
170000000 0.99873471 176.03748
180000000 0.99870706 175.80569
190000000 0.99867344 175.57561
200000000 0.99864739 175.34383
210000000 0.99859482 175.11243
220000000 0.99852884 174.88089
230000000 0.99854022 174.64987
240000000 0.99849766 174.41946
250000000 0.99847192 174.18839
260000000 0.99843198 173.95764
270000000 0.99837917 173.72966
280000000 0.99836254 173.49686
290000000 0.99833733 173.26753
300000000 0.99829894 173.03831
310000000 0.99831474 172.80559
320000000 0.99827194 172.57527
330000000 0.99827844 172.34763
340000000 0.99822956 172.11659
350000000 0.99814761 171.88167
360000000 0.99820346 171.65631
370000000 0.99816173 171.42377
380000000 0.99817806 171.19334
390000000 0.99813366 170.96217
400000000 0.99812609 170.73181
410000000 0.99805975 170.502
420000000 0.99805909 170.27022
430000000 0.99801862 170.04044
440000000 0.99798387 169.81001
450000000 0.99793315 169.57899
460000000 0.99792272 169.34921
470000000 0.99789494 169.11771
480000000 0.99783939 168.88599
490000000 0.99787778 168.65764
500000000 0.9978081 168.42899
510000000 0.99780416 168.19826
520000000 0.99778795 167.96637
530000000 0.99780667 167.73665
540000000 0.99774128 167.508
550000000 0.99768931 167.27704
560000000 0.99773824 167.04651
570000000 0.99764818 166.81465
580000000 0.9976756 166.58685
590000000 0.99767315 166.356
600000000 0.99764872 166.12628
610000000 0.99757767 165.89754
620000000 0.9975372 165.66579
630000000 0.99752426 165.43527
640000000 0.99749899 165.20598
650000000 0.9974727 164.97708
660000000 0.99747145 164.74614
670000000 0.99749249 164.51682
680000000 0.99748683 164.28743
690000000 0.99744236 164.05769
700000000 0.99749511 163.82697
710000000 0.99744868 163.59608
720000000 0.99741179 163.36545
730000000 0.99739963 163.13579
740000000 0.99732155 162.90459
750000000 0.99735767 162.67609
760000000 0.997361 162.44327
770000000 0.99731106 162.21545
780000000 0.99726444 161.98389
790000000 0.99731231 161.75404
800000000 0.99732023 161.5262
810000000 0.99726462 161.29425
820000000 0.99727511 161.06493
830000000 0.99723452 160.83513
840000000 0.99722785 160.60478
850000000 0.99717629 160.37364
860000000 0.99719793 160.14401
870000000 0.99713731 159.91527
880000000 0.99716222 159.68542
890000000 0.99712902 159.45583
900000000 0.99711901 159.22717
910000000 0.99713367 158.99651
920000000 0.9971261 158.76497
930000000 0.99716312 158.53458
940000000 0.99708879 158.30449
950000000 0.99706084 158.07379
960000000 0.99703985 157.845
970000000 0.99704701 157.61322
980000000 0.99701172 157.38242
990000000 0.99697733 157.1543
1000000000 0.9969331 156.92461
1010000000 0.99691534 156.69379
1020000000 0.9968822 156.46483
1030000000 0.99688375 156.2352
1040000000 0.99687272 156.00652
1050000000 0.99687523 155.7758
1060000000 0.9968673 155.5463
1070000000 0.99686521 155.31717
1080000000 0.9968735 155.08591
1090000000 0.99682826 154.85667
1100000000 0.99682176 154.62595
1110000000 0.99682564 154.39784
1120000000 0.99681759 154.16779
1130000000 0.99680483 153.93758
1140000000 0.9968217 153.70837
1150000000 0.99675864 153.47742
1160000000 0.99674475 153.24792
1170000000 0.99672866 153.01718
1180000000 0.99667388 152.7869
1190000000 0.996705 152.55733
1200000000 0.99668533 152.32698
1210000000 0.99668282 152.09596
1220000000 0.99665046 151.86623
1230000000 0.99664915 151.63744
1240000000 0.99663222 151.40631
1250000000 0.99660558 151.17868
1260000000 0.99657136 150.94788
1270000000 0.99657059 150.72153
1280000000 0.99659002 150.48997
1290000000 0.99655324 150.2607
1300000000 0.99659032 150.03258
1310000000 0.99659306 149.80058
1320000000 0.99657208 149.5717
1330000000 0.99657446 149.34149
1340000000 0.99656802 149.11035
1350000000 0.99651897 148.87962
1360000000 0.99650955 148.65076
1370000000 0.99653101 148.4202
1380000000 0.99649382 148.19064
1390000000 0.99643815 147.96078
1400000000 0.99644089 147.73355
1410000000 0.99647528 147.50346
1420000000 0.99644899 147.27422
1430000000 0.99643469 147.04294
1440000000 0.99644572 146.81519
1450000000 0.9964844 146.58479
1460000000 0.99644834 146.3537
1470000000 0.99643272 146.12207
1480000000 0.99640203 145.8941
1490000000 0.99643266 145.66478
1500000000 0.99636835 145.43385
1510000000 0.9963603 145.20322
1520000000 0.99629301 144.97516
1530000000 0.99630886 144.74556
1540000000 0.99625468 144.51711
1550000000 0.99624789 144.28444
1560000000 0.99625838 144.05585
1570000000 0.99626017 143.82616
1580000000 0.99625552 143.59831
1590000000 0.99628538 143.37061
1600000000 0.99625736 143.14203
1610000000 0.9962669 142.91003
1620000000 0.99622154 142.68068
1630000000 0.99626577 142.45331
1640000000 0.99621421 142.22331
1650000000 0.99623048 141.99117
1660000000 0.99623388 141.76117
1670000000 0.99624586 141.53226
1680000000 0.99622375 141.30101
1690000000 0.99622035 141.07051
1700000000 0.99622673 140.84152
1710000000 0.9962067 140.61061
1720000000 0.99616653 140.37903
1730000000 0.99610662 140.15121
1740000000 0.99609941 139.92412
1750000000 0.99605376 139.69232
1760000000 0.99606639 139.46307
1770000000 0.99605834 139.23412
1780000000 0.99604225 139.00499
1790000000 0.99604303 138.77615
1800000000 0.99602371 138.54732
1810000000 0.99605179 138.31587
1820000000 0.99605632 138.09068
1830000000 0.99605328 137.85924
1840000000 0.99611145 137.6311
1850000000 0.99602968 137.3997
1860000000 0.99603343 137.17017
1870000000 0.99604857 136.94008
1880000000 0.99601221 136.71136
1890000000 0.99603194 136.48195
1900000000 0.99595606 136.25142
1910000000 0.99592966 136.02275
1920000000 0.99594355 135.79053
1930000000 0.99594146 135.56285
1940000000 0.99597311 135.33055
1950000000 0.99595785 135.1022
1960000000 0.99590474 134.87361
1970000000 0.995906 134.64395
1980000000 0.99589032 134.4133
1990000000 0.99587572 134.18509
2000000000 0.99584407 133.95638
2010000000 0.99580812 133.72801
2020000000 0.99576002 133.49881
2030000000 0.99582845 133.26996
2040000000 0.99578243 133.04022
2050000000 0.99581689 132.81104
2060000000 0.99583519 132.58124
2070000000 0.99582183 132.35341
2080000000 0.99577683 132.12547
2090000000 0.99580359 131.89101
2100000000 0.99577427 131.66475
2110000000 0.99584985 131.43498
2120000000 0.99582481 131.20523
2130000000 0.99576259 130.97464
2140000000 0.99580789 130.74478
2150000000 0.99574393 130.51501
2160000000 0.99577349 130.28717
2170000000 0.99576378 130.05774
2180000000 0.99569952 129.82846
2190000000 0.99570727 129.59755
2200000000 0.9957335 129.37064
2210000000 0.99572039 129.1414
2220000000 0.99569529 128.90985
2230000000 0.99567139 128.68076
2240000000 0.99569672 128.45088
2250000000 0.99566734 128.22014
2260000000 0.99569643 127.9928
2270000000 0.99570316 127.76138
2280000000 0.99566925 127.53207
2290000000 0.99566394 127.30474
2300000000 0.99562621 127.07273
2310000000 0.9956609 126.84634
2320000000 0.9955886 126.61672
2330000000 0.99557513 126.38638
2340000000 0.99557328 126.15812
2350000000 0.99558574 125.93088
2360000000 0.99556911 125.70063
2370000000 0.99558902 125.47192
2380000000 0.99555743 125.24454
2390000000 0.99552405 125.01178
2400000000 0.99555236 124.78317
2410000000 0.99554396 124.55486
2420000000 0.9955706 124.32414
2430000000 0.9955951 124.09707
2440000000 0.99556398 123.86627
2450000000 0.99557149 123.63747
2460000000 0.99553835 123.40871
2470000000 0.99556726 123.17666
2480000000 0.99555951 122.94662
2490000000 0.995552 122.71815
2500000000 0.99551344 122.48899
2510000000 0.99552757 122.25909
2520000000 0.99555027 122.0285
2530000000 0.99549562 121.8017
2540000000 0.99547219 121.57215
2550000000 0.99547452 121.34332
2560000000 0.99544919 121.11659
2570000000 0.99546349 120.88634
2580000000 0.99546033 120.65623
2590000000 0.99551743 120.42695
2600000000 0.99549937 120.19707
2610000000 0.99549818 119.96711
2620000000 0.99545258 119.73712
2630000000 0.9954825 119.50666
2640000000 0.99553001 119.27882
2650000000 0.99550331 119.04752
2660000000 0.9954173 118.81654
2670000000 0.99543321 118.58842
2680000000 0.99543285 118.36073
2690000000 0.9953928 118.13113
2700000000 0.99538207 117.90182
2710000000 0.99537963 117.67313
2720000000 0.99539405 117.44362
2730000000 0.99539053 117.21569
2740000000 0.99541408 116.98349
2750000000 0.99543375 116.75538
2760000000 0.99538481 116.52427
2770000000 0.99540162 116.29388
2780000000 0.99536216 116.06603
2790000000 0.99536031 115.83504
2800000000 0.99538004 115.60792
2810000000 0.99532026 115.37761
2820000000 0.99532861 115.14973
2830000000 0.99533826 114.92235
2840000000 0.99533755 114.69215
2850000000 0.99530244 114.46597
2860000000 0.9952724 114.23388
2870000000 0.99531585 114.00603
2880000000 0.99532449 113.77762
2890000000 0.99529672 113.54807
2900000000 0.99533278 113.3168
2910000000 0.9953652 113.08959
2920000000 0.99530923 112.8574
2930000000 0.99528587 112.62978
2940000000 0.99532521 112.4011
2950000000 0.99528193 112.17188
2960000000 0.99529511 111.94483
2970000000 0.99525446 111.71181
2980000000 0.99531412 111.48407
2990000000 0.9953146 111.2538
3000000000 0.99535519 111.02287
3010000000 0.99526733 110.79446
3020000000 0.99534452 110.57147
3030000000 0.99527812 110.3342
3040000000 0.99525917 110.10657
3050000000 0.99530667 109.8748
3060000000 0.995323 109.64746
3070000000 0.99529713 109.41602
3080000000 0.99529576 109.18838
3090000000 0.99525189 108.95809
3100000000 0.99524105 108.7276
3110000000 0.99522269 108.50056
3120000000 0.99516898 108.27122
3130000000 0.99515438 108.03989
3140000000 0.99515504 107.81149
3150000000 0.99514228 107.58102
3160000000 0.99509972 107.35191
3170000000 0.99509501 107.12259
3180000000 0.99509871 106.89451
3190000000 0.99514931 106.66605
3200000000 0.99512351 106.43712
3210000000 0.99512124 106.21046
3220000000 0.99518889 105.97851
3230000000 0.99518275 105.74977
3240000000 0.99515384 105.52304
3250000000 0.99516004 105.29264
3260000000 0.99515313 105.06242
3270000000 0.99514061 104.83348
3280000000 0.99515086 104.60439
3290000000 0.99514872 104.37337
3300000000 0.9951607 104.14474
3310000000 0.99512303 103.91631
3320000000 0.99513108 103.6852
3330000000 0.99515975 103.45548
3340000000 0.99513972 103.22867
3350000000 0.99508077 102.99762
3360000000 0.99511766 102.76896
3370000000 0.9951539 102.54062
3380000000 0.99511975 102.3097
3390000000 0.99517161 102.08142
3400000000 0.99511993 101.85261
3410000000 0.99515539 101.62509
3420000000 0.9951508 101.39382
3430000000 0.99511266 101.16399
3440000000 0.99509841 100.93629
3450000000 0.99508178 100.70467
3460000000 0.99512142 100.47398
3470000000 0.99507368 100.24744
3480000000 0.99510914 100.02023
3490000000 0.99510831 99.788422
3500000000 0.995139 99.560684
3510000000 0.99512208 99.330757
3520000000 0.99509495 99.09993
3530000000 0.99513024 98.869949
3540000000 0.99509388 98.639587
3550000000 0.99509901 98.410019
3560000000 0.99505061 98.181244
3570000000 0.9950673 97.951645
3580000000 0.99507654 97.723862
3590000000 0.99503851 97.495636
3600000000 0.99503988 97.267799
3610000000 0.99504036 97.03833
3620000000 0.99499792 96.809067
3630000000 0.99503022 96.581497
3640000000 0.99501288 96.348831
3650000000 0.99500102 96.120827
3660000000 0.99504316 95.892448
3670000000 0.9950636 95.664375
3680000000 0.99504018 95.435844
3690000000 0.9950859 95.206993
3700000000 0.99510121 94.976295
3710000000 0.99512196 94.747581
3720000000 0.99507445 94.517349
3730000000 0.99507642 94.289154
3740000000 0.995125 94.057602
3750000000 0.99504906 93.829628
3760000000 0.99507582 93.598892
3770000000 0.99508381 93.36898
3780000000 0.99503106 93.14045
3790000000 0.99505007 92.911095
3800000000 0.99498761 92.681198
3810000000 0.99501491 92.454056
3820000000 0.995031 92.225746
3830000000 0.99498791 91.993362
3840000000 0.99500817 91.764984
3850000000 0.99500895 91.537346
3860000000 0.99497432 91.308746
3870000000 0.99506593 91.07872
3880000000 0.99501973 90.846703
3890000000 0.99505931 90.618416
3900000000 0.99505305 90.39035
3910000000 0.99500251 90.160553
3920000000 0.99497032 89.932808
3930000000 0.99498641 89.702286
3940000000 0.99496484 89.476082
3950000000 0.9949562 89.246025
3960000000 0.99500227 89.018761
3970000000 0.99502802 88.792274
3980000000 0.99507016 88.562935
3990000000 0.99500489 88.334511
4000000000 0.99506831 88.105354
4010000000 0.99504054 87.874817
4020000000 0.9950611 87.645279
4030000000 0.99508435 87.414421
4040000000 0.99509203 87.185547
4050000000 0.99506623 86.956078
4060000000 0.99500293 86.725044
4070000000 0.99497384 86.49456
4080000000 0.99501628 86.265594
4090000000 0.99502438 86.037819
4100000000 0.99504757 85.808571
4110000000 0.99502873 85.580505
4120000000 0.9950518 85.352402
4130000000 0.99501705 85.123047
4140000000 0.99501675 84.893631
4150000000 0.99506032 84.665062
4160000000 0.99505299 84.4356
4170000000 0.99500877 84.206154
4180000000 0.99501294 83.975853
4190000000 0.99500602 83.749931
4200000000 0.99501985 83.520302
4210000000 0.99496889 83.291298
4220000000 0.99497008 83.062057
4230000000 0.99501699 82.832733
4240000000 0.99498963 82.602509
4250000000 0.99504393 82.374725
4260000000 0.99509037 82.143951
4270000000 0.99498242 81.914192
4280000000 0.99502498 81.684662
4290000000 0.99499142 81.458511
4300000000 0.9949677 81.227898
4310000000 0.99497372 81.00032
4320000000 0.99497521 80.770302
4330000000 0.99500376 80.541389
4340000000 0.99499774 80.311348
4350000000 0.99503654 80.084297
4360000000 0.99502128 79.856377
4370000000 0.99499023 79.628365
4380000000 0.99501544 79.397942
4390000000 0.99502194 79.168205
4400000000 0.99500185 78.939972
4410000000 0.99501508 78.710442
4420000000 0.99498528 78.4813
4430000000 0.99498785 78.251251
4440000000 0.99499166 78.023438
4450000000 0.99499315 77.792915
4460000000 0.99496311 77.566246
4470000000 0.99501187 77.336975
4480000000 0.99500728 77.10627
4490000000 0.99502248 76.876411
4500000000 0.99502361 76.647369
4510000000 0.99503374 76.418968
4520000000 0.99502844 76.187241
4530000000 0.9950217 75.957954
4540000000 0.99498308 75.731415
4550000000 0.99498051 75.499825
4560000000 0.99493527 75.27256
4570000000 0.99496186 75.044495
4580000000 0.99499685 74.815933
4590000000 0.99493796 74.587471
4600000000 0.99500287 74.358696
4610000000 0.99493414 74.130035
4620000000 0.99499941 73.901306
4630000000 0.99504125 73.671333
4640000000 0.99503386 73.443581
4650000000 0.99503034 73.21376
4660000000 0.99505115 72.985237
4670000000 0.99500686 72.753685
4680000000 0.99503392 72.524857
4690000000 0.99501872 72.296852
4700000000 0.99496448 72.068062
4710000000 0.9950065 71.840477
4720000000 0.99503708 71.610497
4730000000 0.99499983 71.382675
4740000000 0.99499381 71.156998
4750000000 0.99501425 70.92836
4760000000 0.99502766 70.699394
4770000000 0.99504924 70.468605
4780000000 0.99501282 70.240112
4790000000 0.99508286 70.011086
4800000000 0.99508286 69.780762
4810000000 0.99510384 69.551254
4820000000 0.99508166 69.320068
4830000000 0.99510407 69.089668
4840000000 0.99502718 68.860565
4850000000 0.99501026 68.633583
4860000000 0.99501538 68.405128
4870000000 0.99507111 68.174355
4880000000 0.99504483 67.947113
4890000000 0.99506307 67.717682
4900000000 0.99506503 67.487923
4910000000 0.99509937 67.259224
4920000000 0.99504524 67.029663
4930000000 0.99503499 66.802292
4940000000 0.99501431 66.572083
4950000000 0.99506015 66.344078
4960000000 0.99501783 66.114937
4970000000 0.99503952 65.883736
4980000000 0.99502897 65.658028
4990000000 0.99505317 65.426407
5000000000 0.99508262 65.198677
5010000000 0.99508077 64.971489
5020000000 0.99506336 64.741531
5030000000 0.99500448 64.512161
5040000000 0.99503106 64.282745
5050000000 0.99505782 64.054916
5060000000 0.99499673 63.82452
5070000000 0.99503487 63.599247
5080000000 0.99502611 63.369122
5090000000 0.99499935 63.141335
5100000000 0.99509436 62.911427
5110000000 0.99507475 62.684063
5120000000 0.9950878 62.455067
5130000000 0.99513406 62.226589
5140000000 0.99512583 61.997074
5150000000 0.99513406 61.767818
5160000000 0.99512345 61.536556
5170000000 0.99513906 61.306366
5180000000 0.99514228 61.080013
5190000000 0.99513006 60.848988
5200000000 0.99511659 60.619125
5210000000 0.99508774 60.391373
5220000000 0.99502546 60.163422
5230000000 0.99500924 59.933189
5240000000 0.99501508 59.704407
5250000000 0.99503487 59.476017
5260000000 0.99505478 59.247166
5270000000 0.99510843 59.018204
5280000000 0.99512094 58.790924
5290000000 0.99509579 58.560253
5300000000 0.99506158 58.330418
5310000000 0.99510664 58.103027
5320000000 0.99512905 57.873547
5330000000 0.99510825 57.642883
5340000000 0.99506205 57.416061
5350000000 0.99508035 57.188969
5360000000 0.99512315 56.961143
5370000000 0.99510062 56.733856
5380000000 0.99505454 56.501663
5390000000 0.99510145 56.273911
5400000000 0.99507898 56.043694
5410000000 0.99510741 55.816296
5420000000 0.99509835 55.587261
5430000000 0.99509293 55.357685
5440000000 0.99500948 55.12878
5450000000 0.99508345 54.900574
5460000000 0.99507666 54.671852
5470000000 0.9951092 54.443008
5480000000 0.99507523 54.214771
5490000000 0.99506706 53.985302
5500000000 0.99504811 53.756943
5510000000 0.99504817 53.528088
5520000000 0.99508274 53.29871
5530000000 0.9950673 53.06678
5540000000 0.99508911 52.842297
5550000000 0.99514788 52.611191
5560000000 0.99515098 52.383739
5570000000 0.99515522 52.152912
5580000000 0.99514395 51.92453
5590000000 0.99510497 51.693813
5600000000 0.99517733 51.463463
5610000000 0.99516624 51.23645
5620000000 0.99516159 51.009899
5630000000 0.99517518 50.778893
5640000000 0.99510181 50.550999
5650000000 0.99510646 50.320423
5660000000 0.99510664 50.092762
5670000000 0.99512297 49.863522
5680000000 0.99511731 49.63485
5690000000 0.99515593 49.403076
5700000000 0.99510068 49.174419
5710000000 0.99508178 48.945896
5720000000 0.99510974 48.71701
5730000000 0.99505836 48.490486
5740000000 0.99505579 48.259182
5750000000 0.99509597 48.033989
5760000000 0.99503142 47.803822
5770000000 0.99508107 47.576931
5780000000 0.99507582 47.345512
5790000000 0.9950524 47.119209
5800000000 0.99510986 46.886833
5810000000 0.99511027 46.66206
5820000000 0.99512839 46.433117
5830000000 0.99507415 46.202019
5840000000 0.99507374 45.972935
5850000000 0.99514544 45.744614
5860000000 0.99513644 45.515442
5870000000 0.99516153 45.285881
5880000000 0.99516028 45.056984
5890000000 0.99519694 44.827778
5900000000 0.99520034 44.597908
5910000000 0.99517727 44.367828
5920000000 0.99520499 44.139637
5930000000 0.99520797 43.90876
5940000000 0.99516624 43.678783
5950000000 0.99518859 43.450191
5960000000 0.99516994 43.220284
5970000000 0.99515659 42.994301
5980000000 0.99511588 42.761696
5990000000 0.99511689 42.537548
6000000000 0.99508893 42.307171
6010000000 0.99514478 42.080883
6020000000 0.9951629 41.851261
6030000000 0.9951036 41.625717
6040000000 0.99516422 41.403999
6050000000 0.99513179 41.165546
6060000000 0.99516702 40.92614
6070000000 0.99522066 40.703926
6080000000 0.99523133 40.479092
6090000000 0.99522597 40.25005
6100000000 0.99517596 40.020035
6110000000 0.9951629 39.791882
6120000000 0.99513125 39.561874
6130000000 0.99520528 39.333149
6140000000 0.99519515 39.105438
6150000000 0.99518979 38.87632
6160000000 0.99520862 38.648495
6170000000 0.99517149 38.419979
6180000000 0.99513602 38.191563
6190000000 0.99517572 37.962093
6200000000 0.99521029 37.73333
6210000000 0.9952386 37.505688
6220000000 0.99518621 37.277485
6230000000 0.99521148 37.049767
6240000000 0.99526036 36.821033
6250000000 0.99525887 36.590973
6260000000 0.99524885 36.363564
